; CSV generated by libsigrok 0.5.0
; from Saleae Logic16 on Wed Apr 18 17:31:10 2018
 15
; Samplerate: 16 MHz
logic,logic
0,0
1,0
0,0
1,0
0,0
1,0
0,0
1,0
0,0
1,0
0,0
1,0
0,0
1,0
0,0
1,0
0,0
1,0
0,0
1,0
0,0
1,0
0,0
1,0
0,0
1,0
0,0
1,0
0,0
1,0
0,0
1,0
1,0
1,0
0,0
1,0
0,0
1,0
0,0
1,0
0,0
1,0
0,0
1,0
0,0
1,0
0,0
1,0
0,0
1,0
0,0
1,0
0,0
1,0
0,0
1,0
0,0
1,0
0,0
1,0
0,0
1,0
0,0
1,0
0,0
0,0
0,0
1,0
0,0
1,0
0,0
1,0
0,0
1,0
0,0
1,0
0,0
1,0
0,0
1,0
0,0
1,0
0,0
1,0
0,0
1,0
0,0
1,0
0,0
1,0
0,0
1,0
0,0
1,0
0,0
1,0
0,0
0,0
0,0
1,0
0,0
1,0
0,0
1,0
0,0
1,0
0,0
1,0
0,0
1,0
0,0
1,0
0,0
1,0
0,0
1,0
0,0
1,0
0,0
1,0
0,0
1,0
0,0
1,0
0,0
1,0
0,0
1,0
0,0
1,0
0,0
0,0
0,0
1,0
0,0
1,0
0,0
1,0
0,0
1,0
0,0
1,0
0,0
1,0
0,0
1,0
0,0
1,0
0,0
1,0
0,0
1,0
0,0
1,0
0,0
1,0
0,0
1,0
0,0
1,0
0,0
1,0
0,0
0,0
0,0
1,0
0,0
1,0
0,0
1,0
0,0
1,0
0,0
1,0
0,0
1,0
0,0
1,0
0,0
1,0
0,0
1,0
0,0
1,0
0,0
1,0
0,0
1,0
0,0
1,0
0,0
1,0
0,0
1,0
0,0
1,0
1,0
1,0
0,0
1,0
0,0
1,0
0,0
1,0
0,0
1,0
0,0
1,0
0,0
1,0
0,0
1,0
0,0
1,0
0,0
1,0
0,0
1,0
0,0
1,0
0,0
1,0
0,0
1,0
0,0
1,0
0,0
1,0
0,0
0,0
0,0
1,0
0,0
1,0
0,0
1,0
0,0
1,0
0,0
1,0
0,0
1,0
0,0
1,0
0,0
1,0
0,0
1,0
0,0
1,0
0,0
1,0
0,0
1,0
0,0
1,0
0,0
1,0
0,0
1,0
0,0
0,0
0,0
1,0
0,0
1,0
0,0
1,0
0,0
1,0
0,0
1,0
0,0
1,0
0,0
1,0
0,0
1,0
0,0
1,0
0,0
1,0
0,0
1,0
0,0
1,0
0,0
1,0
0,0
1,0
0,0
1,0
0,0
1,0
0,0
0,0
0,0
1,0
0,0
1,0
0,0
1,0
0,0
1,0
0,0
1,0
0,0
1,0
0,0
1,0
0,0
1,0
0,0
1,0
0,0
1,0
0,0
1,0
0,0
1,0
0,0
1,0
0,0
1,0
0,0
1,0
0,0
0,0
0,0
1,0
0,0
1,0
0,0
1,0
0,0
1,0
0,0
1,0
0,0
1,0
0,0
1,0
0,0
1,0
0,0
1,0
0,0
1,0
0,0
1,0
0,0
1,0
0,0
1,0
0,0
1,0
0,0
1,0
0,0
1,0
1,0
1,0
0,0
1,0
0,0
1,0
0,0
1,0
0,0
1,0
0,0
1,0
0,0
1,0
0,0
1,0
0,0
1,0
0,0
1,0
0,0
1,0
0,0
1,0
0,0
1,0
0,0
1,0
0,0
1,0
0,0
1,0
0,0
0,0
0,0
1,0
0,0
1,0
0,0
1,0
0,0
1,0
0,0
1,0
0,0
1,0
0,0
1,0
0,0
1,0
0,0
1,0
0,0
1,0
0,0
1,0
0,0
1,0
0,0
1,0
0,0
1,0
0,0
1,0
0,0
0,0
0,0
1,0
0,0
1,0
0,0
1,0
0,0
1,0
0,0
1,0
0,0
1,0
0,0
1,0
0,0
1,0
0,0
1,0
0,0
1,0
0,0
1,0
0,0
1,0
0,0
1,0
0,0
1,0
0,0
1,0
0,0
1,0
0,0
0,0
0,0
1,0
0,0
1,0
0,0
1,0
0,0
1,0
0,0
1,0
0,0
1,0
0,0
1,0
0,0
1,0
0,0
1,0
0,0
1,0
0,0
1,0
0,0
1,0
0,0
1,0
0,0
1,0
0,0
1,0
0,0
0,0
0,0
1,0
0,0
1,0
0,0
1,0
0,0
1,0
0,0
1,0
0,0
1,0
0,0
1,0
0,0
1,0
0,0
1,0
0,0
1,0
0,0
1,0
0,0
1,0
0,0
1,0
0,0
1,0
0,0
1,0
0,0
1,0
1,0
1,0
0,0
1,0
0,0
1,0
0,0
1,0
0,0
1,0
0,0
1,0
0,0
1,0
0,0
1,0
0,0
1,0
0,0
1,0
0,0
1,0
0,0
1,0
0,0
1,0
0,0
1,0
0,0
1,0
0,0
1,0
0,0
0,0
0,0
1,0
0,0
1,0
0,0
1,0
0,0
1,0
0,0
1,0
0,0
1,0
0,0
1,0
0,0
1,0
0,0
1,0
0,0
1,0
0,0
1,0
0,0
1,0
0,0
1,0
0,0
1,0
0,0
1,0
0,0
0,0
0,0
1,0
0,0
1,0
0,0
1,0
0,0
1,0
0,0
1,0
0,0
1,0
0,0
1,0
0,0
1,0
0,0
1,0
0,0
1,0
0,0
1,0
0,0
1,0
0,0
1,0
0,0
1,0
0,0
1,0
0,0
1,0
0,0
0,0
0,0
1,0
0,0
1,0
0,0
1,0
0,0
1,0
0,0
1,0
0,0
1,0
0,0
1,0
0,0
1,0
0,0
1,0
0,0
1,0
0,0
1,0
0,0
1,0
0,0
1,0
0,0
1,0
0,0
1,0
0,0
0,0
0,0
1,0
0,0
1,0
0,0
1,0
0,0
1,0
0,0
1,0
0,0
1,0
0,0
1,0
0,0
1,0
0,0
1,0
0,0
1,0
0,0
1,0
0,0
1,0
0,0
1,0
0,0
1,0
0,0
1,0
0,0
1,0
1,0
1,0
0,0
1,0
0,0
1,0
0,0
1,0
0,0
1,0
0,0
1,0
0,0
1,0
0,0
1,0
0,0
1,0
0,0
1,0
0,0
1,0
0,0
1,0
0,0
1,0
0,0
1,0
0,0
1,0
0,0
1,0
0,0
0,0
0,0
1,0
0,0
1,0
0,0
1,0
0,0
1,0
0,0
1,0
0,0
1,0
0,0
1,0
0,0
1,0
0,0
1,0
0,0
1,0
0,0
1,0
0,0
1,0
0,0
1,0
0,0
1,0
0,0
1,0
0,0
0,0
0,0
1,0
0,0
1,0
0,0
1,0
0,0
1,0
0,0
1,0
0,0
1,0
0,0
1,0
0,0
1,0
0,0
1,0
0,0
1,0
0,0
1,0
0,0
1,0
0,0
1,0
0,0
1,0
0,0
1,0
0,0
1,0
0,0
0,0
0,0
1,0
0,0
1,0
0,0
1,0
0,0
1,0
0,0
1,0
0,0
1,0
0,0
1,0
0,0
1,0
0,0
1,0
0,0
1,0
0,0
1,0
0,0
1,0
0,0
1,0
0,0
1,0
0,0
1,0
0,0
0,0
0,0
1,0
0,0
1,0
0,0
1,0
0,0
1,0
0,0
1,0
0,0
1,0
0,0
1,0
0,0
1,0
0,0
1,0
0,0
1,0
0,0
1,0
0,0
1,0
0,0
1,0
0,0
1,0
0,0
1,0
0,0
1,0
1,1
1,1
1,1
1,0
0,0
1,0
1,1
0,1
0,0
1,0
1,1
0,1
0,0
1,0
1,1
0,1
0,0
1,0
1,1
0,1
0,0
1,0
1,1
1,0
1,1
0,0
0,1
0,0
1,0
1,1
0,0
1,0
1,1
0,0
0,1
0,0
1,0
1,1
0,1
0,0
1,0
1,1
0,0
1,0
1,1
0,0
1,0
1,1
0,1
0,0
1,0
1,1
0,1
0,0
1,0
1,1
0,0
1,0
1,1
0,1
0,0
0,0
0,0
1,0
1,1
0,1
0,0
1,0
1,1
1,0
1,1
0,0
1,0
1,1
0,0
1,0
1,1
1,0
1,1
0,0
1,0
1,1
0,1
0,0
1,0
1,1
0,0
1,0
1,1
0,1
0,0
1,0
1,1
0,0
1,0
1,1
0,0
1,0
1,1
0,0
1,0
1,1
0,0
0,1
0,0
1,0
1,1
0,1
0,0
0,0
0,0
1,0
1,1
0,1
0,0
1,0
1,1
0,0
1,0
1,1
0,0
1,0
1,1
0,0
1,0
1,1
1,0
0,0
1,0
1,1
0,1
0,0
1,0
1,1
0,1
0,0
1,0
1,1
0,0
1,0
1,1
0,1
0,0
1,0
1,1
0,0
0,1
0,0
1,0
1,1
0,1
0,0
1,0
1,1
0,1
0,0
1,0
1,1
0,0
0,1
0,0
1,0
1,1
0,0
1,0
1,1
0,1
0,0
1,0
1,1
1,1
1,1
0,0
0,1
0,0
1,0
1,1
0,1
0,0
1,0
1,1
0,1
0,0
1,0
1,1
0,1
0,0
1,0
1,1
0,1
0,0
1,0
1,1
0,0
1,0
1,1
0,0
1,0
1,1
0,0
1,0
1,1
0,0
0,1
0,0
1,0
1,1
0,0
1,0
1,1
0,0
1,0
1,1
0,0
1,0
1,1
0,1
0,0
1,0
1,1
0,0
1,0
1,1
1,0
0,0
1,0
1,1
0,0
0,0
0,0
1,0
1,1
0,1
0,0
1,0
1,1
0,0
1,0
1,1
0,1
0,0
1,0
1,1
0,0
1,0
1,1
0,0
1,0
1,1
1,0
0,0
1,0
1,1
0,0
0,1
0,0
1,0
1,1
0,1
0,0
1,0
1,1
0,0
1,0
1,1
0,1
0,0
1,0
1,1
0,1
0,0
1,0
1,1
0,1
0,0
1,0
1,1
0,0
1,0
1,1
0,1
0,0
1,0
1,1
0,1
0,0
1,0
1,1
1,1
1,1
0,1
0,0
1,0
1,1
0,1
0,0
1,0
1,1
0,0
1,0
1,1
0,1
0,0
1,0
1,1
1,0
0,0
1,0
1,1
1,0
0,0
1,0
1,1
0,0
1,0
1,1
0,0
1,0
1,1
0,0
1,0
1,1
0,0
0,1
0,0
1,0
1,1
0,1
0,0
1,0
1,1
0,0
1,0
1,1
0,1
0,0
1,0
1,1
0,0
0,1
0,0
1,0
1,1
0,0
1,0
1,1
0,0
0,0
0,0
1,0
1,1
0,0
1,0
1,1
0,1
0,0
1,0
1,1
1,0
0,0
1,0
1,1
1,0
0,0
1,0
1,1
0,1
0,0
1,0
1,1
1,0
0,0
1,0
1,1
0,1
0,0
1,0
1,1
0,1
0,0
0,1
0,0
1,0
1,1
0,0
1,0
1,1
0,0
1,0
1,1
0,1
0,0
1,0
1,1
0,1
0,0
1,0
1,1
0,0
1,0
1,1
0,0
1,0
1,1
0,0
0,0
0,0
1,0
1,1
0,1
0,0
1,0
1,1
0,0
0,1
0,0
1,0
1,1
0,1
0,0
1,0
1,1
0,0
1,0
1,1
0,1
0,0
1,0
1,1
1,0
0,0
1,0
1,1
0,0
1,0
1,1
0,0
1,0
1,1
0,0
1,0
1,1
0,0
1,0
1,1
0,0
1,0
1,1
0,0
1,0
1,1
0,1
0,0
1,0
1,1
1,0
1,1
0,1
0,0
1,0
1,1
0,0
1,0
1,1
0,0
0,0
0,0
1,0
1,1
1,0
1,1
0,1
0,0
1,0
1,1
1,0
0,0
1,0
1,1
1,0
1,1
0,0
1,0
1,1
1,0
1,1
0,1
0,0
1,0
1,1
0,1
0,0
1,0
1,1
1,0
0,0
1,0
1,1
0,0
0,1
0,0
1,0
1,1
0,1
0,0
1,0
1,1
0,1
0,0
1,0
1,1
1,0
1,1
0,1
0,0
1,0
1,1
0,0
0,1
0,0
1,0
1,1
1,0
0,0
1,0
1,1
0,0
1,0
1,1
0,1
0,0
1,0
1,1
1,0
0,0
0,0
0,0
1,0
1,1
1,0
1,1
0,0
0,1
0,0
1,0
1,1
0,1
0,0
1,0
1,1
1,0
0,0
1,0
1,1
1,0
1,1
0,0
0,1
0,0
1,0
1,1
0,0
1,0
1,1
0,1
0,0
1,0
1,1
0,0
1,0
1,1
0,1
0,0
1,0
1,1
0,0
1,0
1,1
0,0
1,0
1,1
0,0
1,0
1,1
0,1
0,0
1,0
1,1
1,0
1,1
0,1
0,0
1,0
1,1
0,0
1,0
1,1
0,1
0,0
1,0
1,1
1,0
1,1
1,0
0,0
0,0
0,0
1,0
1,1
1,0
1,1
0,0
1,0
1,1
1,0
1,1
1,0
1,1
0,0
1,0
1,1
0,0
1,0
1,1
1,0
0,0
1,0
1,1
1,0
0,0
1,0
1,1
0,0
0,1
0,0
1,0
1,1
0,0
0,1
0,0
1,0
1,1
0,0
1,0
1,1
1,0
0,0
1,0
1,1
1,0
0,0
1,0
1,1
0,0
1,0
1,1
0,1
0,0
1,0
1,1
0,1
0,0
1,0
1,1
0,0
1,0
1,1
0,0
0,0
0,0
1,0
1,1
0,0
1,0
1,1
0,0
1,0
1,1
0,0
1,0
1,1
1,0
1,1
0,0
0,1
0,0
1,0
1,1
0,1
0,0
0,1
0,0
1,0
1,1
0,0
1,0
1,1
0,1
0,0
1,0
1,1
0,0
1,0
1,1
1,0
1,1
1,0
0,0
1,0
1,1
0,0
0,1
0,0
1,0
1,1
0,1
0,0
1,0
1,1
1,0
1,1
1,0
0,0
1,0
1,1
0,1
0,0
1,0
1,1
0,1
0,0
1,0
1,1
1,0
1,1
0,0
1,0
1,1
1,1
1,1
0,0
1,0
1,1
1,0
0,0
1,0
1,1
0,1
0,0
1,0
1,1
0,1
0,0
1,0
1,1
0,0
1,0
1,1
0,0
1,0
1,1
0,0
0,1
0,0
1,0
1,1
0,0
1,0
1,1
0,0
0,1
0,0
1,0
1,1
0,0
1,0
1,1
0,1
0,0
1,0
1,1
0,1
0,0
1,0
1,1
0,1
0,0
1,0
1,1
0,1
0,0
1,0
1,1
0,1
0,0
1,0
1,1
0,0
0,1
0,0
0,0
0,0
1,0
1,1
0,1
0,0
1,0
1,1
0,0
1,0
1,1
0,1
0,0
1,0
1,1
0,0
1,0
1,1
0,1
0,0
1,0
1,1
0,1
0,0
1,0
1,1
0,0
1,0
1,1
0,0
1,0
1,1
0,0
1,0
1,1
0,0
1,0
1,1
0,1
0,0
1,0
1,1
1,0
0,0
1,0
1,1
0,0
1,0
1,1
0,1
0,0
1,0
1,1
0,0
0,1
0,0
1,0
1,1
1,1
1,1
0,1
0,0
1,0
1,1
0,1
0,0
1,0
1,1
0,1
0,0
1,0
1,1
0,0
0,1
0,0
1,0
1,1
0,0
0,1
0,0
1,0
1,1
1,0
0,0
1,0
1,1
0,0
0,1
0,0
1,0
1,1
0,0
1,0
1,1
0,0
1,0
1,1
1,0
0,0
1,0
1,1
1,0
0,0
1,0
1,1
0,1
0,0
1,0
1,1
0,1
0,0
1,0
1,1
0,0
0,1
0,0
1,0
1,1
0,0
1,0
1,1
0,0
0,0
0,0
1,0
1,1
0,0
0,1
0,0
1,0
1,1
0,0
0,1
0,0
1,0
1,1
1,0
0,0
1,0
1,1
0,0
1,0
1,1
0,1
0,0
1,0
1,1
0,1
0,0
1,0
1,1
0,0
1,0
1,1
0,0
1,0
1,1
0,0
0,1
0,0
1,0
1,1
1,0
0,0
1,0
1,1
0,1
0,0
1,0
1,1
0,0
1,0
1,1
0,1
0,0
1,0
1,1
0,0
1,0
1,1
0,1
0,0
0,0
0,0
1,0
1,1
0,1
0,0
1,0
1,1
0,1
0,0
1,0
1,1
0,1
0,0
1,0
1,1
0,0
0,1
0,0
1,0
1,1
0,1
0,0
1,0
1,1
0,0
1,0
1,1
1,0
0,0
1,0
0,0
1,0
0,0
1,0
0,0
1,0
0,0
1,0
0,0
1,0
0,0
1,0
0,0
1,0
0,0
1,0
0,0
0,0
0,0
1,0
0,0
1,0
0,0
1,0
0,0
1,0
0,0
1,0
0,0
1,0
0,0
1,0
0,0
1,0
0,0
1,0
0,0
1,0
0,0
1,0
0,0
1,0
0,0
1,0
0,0
0,0
0,0
1,0
0,0
1,0
0,0
1,0
0,0
1,0
0,0
1,0
0,0
1,0
0,0
1,0
0,0
1,0
0,0
1,0
0,0
1,0
0,0
1,0
0,0
1,0
0,0
1,0
0,0
1,0
1,0
1,0
0,0
1,0
0,0
1,0
0,0
1,0
0,0
1,0
0,0
1,0
0,0
1,0
0,0
1,0
0,0
1,0
0,0
1,0
0,0
1,0
0,0
1,0
0,0
1,0
0,0
1,0
0,0
1,0
0,0
1,0
0,0
0,0
0,0
1,0
0,0
1,0
0,0
1,0
0,0
1,0
0,0
1,0
0,0
1,0
0,0
1,0
0,0
1,0
0,0
1,0
0,0
1,0
0,0
1,0
0,0
1,0
0,0
1,0
0,0
1,0
0,0
1,0
0,0
0,0
0,0
1,0
0,0
1,0
0,0
1,0
0,0
1,0
0,0
1,0
0,0
1,0
0,0
1,0
0,0
1,0
0,0
1,0
0,0
1,0
0,0
1,0
0,0
1,0
0,0
1,0
0,0
1,0
0,0
1,0
0,0
1,0
0,0
0,0
0,0
1,0
0,0
1,0
0,0
1,0
0,0
1,0
0,0
1,0
0,0
1,0
0,0
1,0
0,0
1,0
0,0
1,0
0,0
1,0
0,0
1,0
0,0
1,0
0,0
1,0
0,0
1,0
0,0
1,0
0,0
0,0
0,0
1,0
0,0
1,0
0,0
1,0
0,0
1,0
0,0
1,0
0,0
1,0
0,0
1,0
0,0
1,0
0,0
1,0
0,0
1,0
0,0
1,0
0,0
1,0
0,0
1,0
0,0
1,0
0,0
1,0
0,0
1,0
1,0
1,0
0,0
1,0
0,0
1,0
0,0
1,0
0,0
1,0
0,0
1,0
0,0
1,0
0,0
1,0
0,0
1,0
0,0
1,0
0,0
1,0
0,0
1,0
0,0
1,0
0,0
1,0
0,0
1,0
0,0
1,0
0,0
0,0
0,0
1,0
0,0
1,0
0,0
1,0
0,0
1,0
0,0
1,0
0,0
1,0
0,0
1,0
0,0
1,0
0,0
1,0
0,0
1,0
0,0
1,0
0,0
1,0
0,0
1,0
0,0
1,0
0,0
1,0
0,0
0,0
0,0
1,0
0,0
1,0
0,0
1,0
0,0
1,0
0,0
1,0
0,0
1,0
0,0
1,0
0,0
1,0
0,0
1,0
0,0
1,0
0,0
1,0
0,0
1,0
0,0
1,0
0,0
1,0
0,0
1,0
0,0
1,0
0,0
0,0
0,0
1,0
0,0
1,0
0,0
1,0
0,0
1,0
0,0
1,0
0,0
1,0
0,0
1,0
0,0
1,0
0,0
1,0
0,0
1,0
0,0
1,0
0,0
1,0
0,0
1,0
0,0
1,0
0,0
1,0
0,0
0,0
0,0
1,0
0,0
1,0
0,0
1,0
0,0
1,0
0,0
1,0
0,0
1,0
0,0
1,0
0,0
1,0
0,0
1,0
0,0
1,0
0,0
1,0
0,0
1,0
0,0
1,0
0,0
1,0
0,0
1,0
0,0
1,0
1,0
1,0
0,0
1,0
0,0
1,0
0,0
1,0
0,0
1,0
0,0
1,0
0,0
1,0
0,0
1,0
0,0
1,0
0,0
1,0
0,0
1,0
0,0
1,0
0,0
1,0
0,0
1,0
0,0
1,0
0,0
1,0
0,0
0,0
0,0
1,0
0,0
1,0
0,0
1,0
0,0
1,0
0,0
1,0
0,0
1,0
0,0
1,0
0,0
1,0
0,0
1,0
0,0
1,0
0,0
1,0
0,0
1,0
0,0
1,0
0,0
1,0
0,0
1,0
0,0
0,0
0,0
1,0
0,0
1,0
0,0
1,0
0,0
1,0
0,0
1,0
0,0
1,0
0,0
1,0
0,0
1,0
0,0
1,0
0,0
1,0
0,0
1,0
0,0
1,0
0,0
1,0
0,0
1,0
0,0
1,0
0,0
1,0
0,0
0,0
0,0
1,0
0,0
1,0
0,0
1,0
0,0
1,0
0,0
1,0
0,0
1,0
0,0
1,0
0,0
1,0
0,0
1,0
0,0
1,0
0,0
1,0
0,0
1,0
0,0
1,0
0,0
1,0
0,0
1,0
0,0
0,0
0,0
1,0
0,0
1,0
0,0
1,0
0,0
1,0
0,0
1,0
0,0
1,0
0,0
1,0
0,0
1,0
0,0
1,0
0,0
1,0
0,0
1,0
0,0
1,0
0,0
1,0
0,0
1,0
0,0
1,0
0,0
1,0
1,0
1,0
0,0
1,0
0,0
1,0
0,0
1,0
0,0
1,0
0,0
1,0
0,0
1,0
0,0
1,0
0,0
1,0
0,0
1,0
0,0
1,0
0,0
1,0
0,0
1,0
0,0
1,0
0,0
1,0
0,0
1,0
0,0
0,0
0,0
1,0
0,0
1,0
0,0
1,0
0,0
1,0
0,0
1,0
0,0
1,0
0,0
1,0
0,0
1,0
0,0
1,0
0,0
1,0
0,0
1,0
0,0
1,0
0,0
1,0
0,0
1,0
0,0
1,0
0,0
0,0
0,0
1,0
0,0
1,0
0,0
1,0
0,0
1,0
0,0
1,0
0,0
1,0
0,0
1,0
0,0
1,0
0,0
1,0
0,0
1,0
0,0
1,0
0,0
1,0
0,0
1,0
0,0
1,0
0,0
1,0
0,0
1,0
0,0
0,0
0,0
1,0
0,0
1,0
0,0
1,0
0,0
1,0
0,0
1,0
0,0
1,0
0,0
1,0
0,0
1,0
0,0
1,0
0,0
1,0
0,0
1,0
0,0
1,0
0,0
1,0
0,0
1,0
0,0
1,0
0,0
0,0
0,0
1,0
0,0
1,0
0,0
1,0
0,0
1,0
0,0
1,0
0,0
1,0
0,0
1,0
0,0
1,0
0,0
1,0
0,0
1,0
0,0
1,0
0,0
1,0
0,0
1,0
0,0
1,0
0,0
1,0
0,0
1,0
0,0
0,0
0,0
1,0
0,0
1,0
0,0
1,0
0,0
1,0
0,0
1,0
0,0
1,0
0,0
1,0
0,0
1,0
0,0
1,0
0,0
1,0
0,0
1,0
0,0
1,0
0,0
1,0
0,0
1,0
0,0
1,0
0,0
0,0
0,0
1,0
0,0
1,0
0,0
1,0
0,0
1,0
0,0
1,0
0,0
1,0
0,0
1,0
0,0
1,0
0,0
1,0
0,0
1,0
0,0
1,0
0,0
1,0
0,0
1,0
0,0
1,0
0,0
1,0
0,0
1,0
1,0
1,0
0,0
1,0
0,0
1,0
0,0
1,0
0,0
1,0
0,0
1,0
0,0
1,0
0,0
1,0
0,0
1,0
0,0
1,0
0,0
1,0
0,0
1,0
0,0
1,0
0,0
1,0
0,0
1,0
0,0
1,0
0,0
0,0
0,0
1,0
0,0
1,0
0,0
1,0
0,0
1,0
0,0
1,0
0,0
1,0
0,0
1,0
0,0
1,0
0,0
1,0
0,0
1,0
0,0
1,0
0,0
1,0
0,0
1,0
0,0
1,0
0,0
1,0
0,0
0,0
0,0
1,0
0,0
1,0
0,0
1,0
0,0
1,0
0,0
1,0
0,0
1,0
0,0
1,0
0,0
1,0
0,0
1,0
0,0
1,0
0,0
1,0
0,0
1,0
0,0
1,0
0,0
1,0
0,0
1,0
0,0
1,0
1,0
1,0
0,0
1,0
0,0
1,0
0,0
1,0
0,0
1,0
0,0
1,0
0,0
1,0
0,0
1,0
0,0
1,0
0,0
1,0
0,0
1,0
0,0
1,0
0,0
1,0
0,0
1,0
0,0
1,0
0,0
1,0
0,0
0,0
0,0
1,0
0,0
1,0
0,0
1,0
0,0
1,0
0,0
1,0
0,0
1,0
0,0
1,0
0,0
1,0
0,0
1,0
0,0
1,0
0,0
1,0
0,0
1,0
0,0
1,0
0,0
1,0
0,0
1,0
0,0
0,0
0,0
1,0
0,0
1,0
0,0
1,0
0,0
1,0
0,0
1,0
0,0
1,0
0,0
1,0
0,0
1,0
0,0
1,0
0,0
1,0
0,0
1,0
0,0
1,0
0,0
1,0
0,0
1,0
0,0
1,0
0,0
1,0
0,0
0,0
0,0
1,0
0,0
1,0
0,0
1,0
0,0
1,0
0,0
1,0
0,0
1,0
0,0
1,0
0,0
1,0
0,0
1,0
0,0
1,0
0,0
1,0
0,0
1,0
0,0
1,0
0,0
1,0
0,0
1,0
0,0
0,0
0,0
1,0
0,0
1,0
0,0
1,0
0,0
0,0
