; CSV generated by libsigrok 0.5.0
; from Saleae Logic16 on Thu Apr 19 17:42:34 2018
 15
; Samplerate: 16 MHz
logic,logic
0,0
1,0
0,0
1,0
0,0
1,0
0,0
1,0
0,0
1,0
0,0
1,0
0,0
1,0
0,0
1,0
0,0
1,0
0,0
1,0
0,0
1,0
0,0
1,0
0,0
1,0
0,0
1,0
0,0
1,0
1,0
1,0
0,0
1,0
0,0
1,0
0,0
1,0
0,0
1,0
0,0
1,0
0,0
1,0
0,0
1,0
0,0
1,0
0,0
1,0
0,0
1,0
0,0
1,0
0,0
1,0
0,0
1,0
0,0
1,0
0,0
0,0
0,0
1,0
0,0
1,0
0,0
1,0
0,0
1,0
0,0
1,0
0,0
1,0
0,0
1,0
0,0
1,0
0,0
1,0
0,0
1,0
0,0
1,0
0,0
1,0
0,0
1,0
0,0
1,0
0,0
0,0
0,0
1,0
0,0
1,0
0,0
1,0
0,0
1,0
0,0
1,0
0,0
1,0
0,0
1,0
0,0
1,0
0,0
1,0
0,0
1,0
0,0
1,0
0,0
1,0
0,0
1,0
0,0
1,0
0,0
1,0
0,0
0,0
0,0
1,0
0,0
1,0
0,0
1,0
0,0
1,0
0,0
1,0
0,0
1,0
0,0
1,0
0,0
1,0
0,0
1,0
0,0
1,0
0,0
1,0
0,0
1,0
0,0
1,0
0,0
1,0
0,0
0,0
0,0
1,0
0,0
1,0
0,0
1,0
0,0
1,0
0,0
1,0
0,0
1,0
0,0
1,0
0,0
1,0
0,0
1,0
0,0
1,0
0,0
1,0
0,0
1,0
0,0
1,0
0,0
1,0
0,0
1,0
1,0
1,0
0,0
1,0
0,0
1,0
0,0
1,0
0,0
1,0
0,0
1,0
0,0
1,0
0,0
1,0
0,0
1,0
0,0
1,0
0,0
1,0
0,0
1,0
0,0
1,0
0,0
1,0
0,0
1,0
0,0
0,0
0,0
1,0
0,0
1,0
0,0
1,0
0,0
1,0
0,0
1,0
0,0
1,0
0,0
1,0
0,0
1,0
0,0
1,0
0,0
1,0
0,0
1,0
0,0
1,0
0,0
1,0
0,0
1,0
0,0
0,0
0,0
1,0
0,0
1,0
0,0
1,0
0,0
1,0
0,0
1,0
0,0
1,0
0,0
1,0
0,0
1,0
0,0
1,0
0,0
1,0
0,0
1,0
0,0
1,0
0,0
1,0
0,0
1,0
0,0
1,0
0,0
0,0
0,0
1,0
0,0
1,0
0,0
1,0
0,0
1,0
0,0
1,0
0,0
1,0
0,0
1,0
0,0
1,0
0,0
1,0
0,0
1,0
0,0
1,0
0,0
1,0
0,0
1,0
0,0
1,0
0,0
0,0
0,0
1,0
0,0
1,0
0,0
1,0
0,0
1,0
0,0
1,0
0,0
1,0
0,0
1,0
0,0
1,0
0,0
1,0
0,0
1,0
0,0
1,0
0,0
1,0
0,0
1,0
0,0
1,0
0,0
1,0
1,0
1,0
0,0
1,0
0,0
1,0
0,0
1,0
0,0
1,0
0,0
1,0
0,0
1,0
0,0
1,0
0,0
1,0
0,0
1,0
0,0
1,0
0,0
1,0
0,0
1,0
0,0
1,0
0,0
1,0
0,0
0,0
0,0
1,0
0,0
1,0
0,0
1,0
0,0
1,0
0,0
1,0
0,0
1,0
0,0
1,0
0,0
1,0
0,0
1,0
0,0
1,0
0,0
1,0
0,0
1,0
0,0
1,0
0,0
1,0
0,0
0,0
0,0
1,0
0,0
1,0
0,0
1,0
0,0
1,0
0,0
1,0
0,0
1,0
0,0
1,0
0,0
1,0
0,0
1,0
0,0
1,0
0,0
1,0
0,0
1,0
0,0
1,0
0,0
1,0
0,0
1,0
0,0
0,0
0,0
1,0
0,0
1,0
0,0
1,0
0,0
1,0
0,0
1,0
0,0
1,0
0,0
1,0
0,0
1,0
0,0
1,0
0,0
1,0
0,0
1,0
0,0
1,0
0,0
1,0
0,0
1,0
0,0
0,0
0,0
1,0
0,0
1,0
0,0
1,0
0,0
1,0
0,0
1,0
0,0
1,0
0,0
1,0
0,0
1,0
0,0
1,0
0,0
1,0
0,0
1,0
0,0
1,0
0,0
1,0
0,0
1,0
0,0
1,0
1,0
1,0
0,0
1,0
0,0
1,0
0,0
1,0
0,0
1,0
0,0
1,0
0,0
1,0
0,0
1,0
0,0
1,0
0,0
1,0
0,0
1,0
0,0
1,0
0,0
1,0
0,0
1,0
0,0
1,0
0,0
0,0
0,0
1,0
0,0
1,0
0,0
1,0
0,0
1,0
0,0
1,0
0,0
1,0
0,0
1,0
0,0
1,0
0,0
1,0
0,0
1,0
0,0
1,0
0,0
1,0
0,0
1,0
0,0
1,0
0,0
1,0
1,0
1,0
0,0
1,0
0,0
1,0
0,0
1,0
0,0
1,0
0,0
1,0
0,0
1,0
0,0
1,0
0,0
1,0
0,0
1,0
0,0
1,0
0,0
1,0
0,0
1,0
0,0
1,0
0,0
1,0
0,0
0,0
0,0
1,0
0,0
1,0
0,0
1,0
0,0
1,0
0,0
1,0
0,0
1,0
0,0
1,0
0,0
1,0
0,0
1,0
0,0
1,0
0,0
1,0
0,0
1,0
0,0
1,0
0,0
1,0
0,0
0,0
0,0
1,0
0,0
1,0
0,0
1,0
0,0
1,0
0,0
1,0
0,0
1,0
0,0
1,0
0,0
1,0
0,0
1,0
0,0
1,0
0,0
1,0
0,0
1,0
0,0
1,0
0,0
1,0
0,0
1,0
1,0
1,0
0,0
1,0
0,0
1,0
0,0
1,0
0,0
1,0
0,0
1,0
0,0
1,0
0,0
1,0
0,0
1,0
0,0
1,0
0,0
1,0
0,0
1,0
0,0
1,0
0,0
1,0
0,0
1,0
0,0
0,0
0,0
1,0
0,0
1,0
0,0
1,0
0,0
1,0
0,0
1,0
0,0
1,0
0,0
1,0
0,0
1,0
0,0
1,0
0,0
1,0
0,0
1,0
0,0
1,0
0,0
1,0
0,0
1,0
0,0
0,0
0,0
1,0
0,0
1,0
0,0
1,0
0,0
1,0
0,0
1,0
0,0
1,0
0,0
1,0
0,0
1,0
0,0
1,0
0,0
1,0
0,0
1,0
0,0
1,0
0,0
1,0
0,0
1,0
0,0
1,0
0,0
0,0
0,0
1,0
0,0
1,0
0,0
1,0
0,0
1,0
0,0
1,0
0,0
1,0
0,0
1,0
0,0
1,0
0,0
1,0
0,0
1,0
0,0
1,0
0,0
1,0
0,0
1,0
0,0
1,0
0,0
0,0
0,0
1,0
0,0
1,0
0,0
1,0
0,0
1,0
0,0
1,0
0,0
1,0
0,0
1,0
0,0
1,0
0,0
1,0
0,0
1,0
0,0
1,0
0,0
1,0
0,0
1,0
0,0
1,0
0,0
1,0
0,0
0,0
0,0
1,0
0,0
1,0
0,0
1,0
0,0
1,0
0,0
1,0
0,0
1,0
0,0
1,0
0,0
1,0
0,0
1,0
0,0
1,0
0,0
1,0
0,0
1,0
0,0
1,0
0,0
1,0
0,0
0,0
0,0
1,0
0,0
1,0
0,0
1,0
0,0
1,0
0,0
1,0
0,0
1,0
0,0
1,0
0,0
1,0
0,0
1,0
0,0
1,0
0,0
1,0
0,0
1,0
0,0
1,0
0,0
1,0
0,0
0,0
0,0
1,0
0,0
1,0
0,0
1,0
0,0
1,0
0,0
1,0
0,0
1,0
0,0
1,0
0,0
1,0
0,0
1,0
0,0
1,0
0,0
1,0
0,0
1,0
0,0
1,0
0,0
1,0
0,0
1,0
0,0
0,0
0,0
1,0
0,0
1,0
0,0
1,0
0,0
1,0
0,0
1,0
0,0
1,0
0,0
1,0
0,0
1,0
0,0
1,0
0,0
1,0
0,0
1,0
0,0
1,0
0,0
1,0
0,0
1,0
0,0
0,0
0,0
1,0
0,0
1,0
0,0
1,0
0,0
1,0
0,0
1,0
0,0
1,0
0,0
1,0
0,0
1,0
0,0
1,0
0,0
1,0
0,0
1,0
0,0
1,0
0,0
1,0
0,0
1,0
0,0
1,0
0,0
0,0
0,0
1,0
0,0
1,0
0,0
1,0
0,0
1,0
0,0
1,0
0,0
1,0
0,0
1,0
0,0
1,0
0,0
1,0
0,0
1,0
0,0
1,0
0,0
1,0
0,0
1,0
0,0
1,0
0,0
0,0
0,0
1,0
0,0
1,0
0,0
1,0
0,0
1,0
0,0
1,0
0,0
1,0
0,0
1,0
0,0
1,0
0,0
1,0
0,0
1,0
0,0
1,0
0,0
1,0
0,0
1,0
0,0
1,0
0,0
1,0
1,0
1,0
0,0
1,0
0,0
1,0
0,0
1,0
0,0
1,0
0,0
1,0
0,0
1,0
0,0
1,0
0,0
1,0
0,0
1,0
0,0
1,0
0,0
1,0
0,0
1,0
0,0
1,0
0,0
1,0
0,0
0,0
0,0
1,0
0,0
1,0
0,0
1,0
0,0
1,0
0,0
1,0
0,0
1,0
0,0
1,0
0,0
1,0
0,0
1,0
0,0
1,0
0,0
1,0
0,0
1,0
0,0
1,0
0,0
1,0
0,0
0,0
0,0
1,0
0,0
1,0
0,0
1,0
0,0
1,0
0,0
1,0
0,0
1,0
0,0
1,0
0,0
1,0
0,0
1,0
0,0
1,0
0,0
1,0
0,0
1,0
0,0
1,0
0,0
1,0
0,0
1,0
0,0
0,0
0,0
1,0
0,0
1,0
0,0
1,0
0,0
1,0
0,0
1,0
0,0
1,0
0,0
1,0
0,0
1,0
0,0
1,0
0,0
1,0
0,0
1,0
0,0
1,0
0,0
1,0
0,0
1,0
0,0
0,0
0,0
1,0
0,0
1,0
0,0
1,0
0,0
1,0
0,0
1,0
0,0
1,0
0,0
1,0
0,0
1,0
0,0
1,0
0,0
1,0
0,0
1,0
0,0
1,0
0,0
1,0
0,0
1,0
0,0
1,0
1,0
1,0
0,0
1,0
0,0
1,0
0,0
1,0
0,0
1,0
0,0
1,0
0,0
1,0
0,0
1,0
0,0
1,0
0,0
1,0
0,0
1,0
0,0
1,0
0,0
1,0
0,0
1,0
0,0
1,0
0,0
0,0
0,0
1,0
0,0
1,0
0,0
1,0
0,0
1,0
0,0
1,0
0,0
1,0
0,0
1,0
0,0
1,0
0,0
1,0
0,0
1,0
0,0
1,0
0,0
1,0
0,0
1,0
0,0
1,0
0,0
0,0
0,0
1,0
0,0
1,0
0,0
1,0
0,0
1,0
0,0
1,0
0,0
1,0
0,0
1,0
0,0
1,0
0,0
1,0
0,0
1,0
0,0
1,0
0,0
1,0
0,0
1,0
0,0
1,0
0,0
1,0
0,0
0,0
0,0
1,0
0,0
1,0
0,0
1,0
0,0
1,0
0,0
1,0
0,0
1,0
0,0
1,0
0,0
1,0
0,0
1,0
0,0
1,0
0,0
1,0
0,0
1,0
0,0
1,0
0,0
1,0
0,0
0,0
0,0
1,0
0,0
1,0
0,0
1,0
0,0
1,0
0,0
1,0
0,0
1,0
0,0
1,0
0,0
1,0
0,0
1,0
0,0
1,0
0,0
1,0
0,0
1,0
0,0
1,0
0,0
1,0
0,0
1,0
0,0
0,0
0,0
1,0
0,0
1,0
0,0
1,0
0,0
1,0
0,0
1,0
0,0
1,0
0,0
1,0
0,0
1,0
0,0
1,0
0,0
1,0
0,0
1,0
0,0
1,0
0,0
1,0
0,0
1,0
0,0
0,0
0,0
1,0
0,0
1,0
0,0
1,0
0,0
1,0
0,0
1,0
0,0
1,0
0,0
1,0
0,0
1,0
0,0
1,0
0,0
1,0
1,1
0,1
0,0
1,0
1,1
1,0
0,0
1,0
1,1
0,1
0,0
1,0
1,1
0,0
0,1
0,0
1,0
1,1
0,0
0,1
0,0
0,0
0,0
1,0
1,1
0,0
1,0
1,1
0,1
0,0
1,0
1,1
0,0
0,1
0,0
1,0
1,1
0,1
0,0
1,0
1,1
0,1
0,0
1,0
1,1
0,1
0,0
1,0
1,1
1,0
1,1
0,1
0,0
1,0
1,1
1,0
1,1
0,0
0,1
0,0
1,0
1,1
0,1
0,0
0,1
0,0
1,0
1,1
0,1
0,0
1,0
1,1
0,1
0,0
1,0
1,1
0,0
0,1
0,0
1,0
1,1
0,1
0,0
1,0
1,1
1,0
0,0
1,0
1,1
1,1
1,1
0,0
1,0
1,1
0,1
0,0
1,0
1,1
0,1
0,0
1,0
1,1
0,1
0,0
1,0
1,1
0,1
0,0
1,0
1,1
1,0
1,1
0,1
0,0
1,0
1,1
0,0
1,0
1,1
0,1
0,0
1,0
1,1
0,1
0,0
1,0
1,1
1,0
0,0
1,0
1,1
0,0
1,0
1,1
1,0
1,1
0,0
0,1
0,0
1,0
1,1
0,1
0,0
1,0
1,1
0,0
0,1
0,0
1,0
1,1
1,0
0,0
0,0
0,0
1,0
1,1
0,0
0,1
0,0
1,0
1,1
1,0
1,1
1,0
1,1
0,1
0,0
1,0
1,1
0,0
1,0
1,1
1,0
0,0
1,0
1,1
0,1
0,0
1,0
1,1
1,0
0,0
1,0
1,1
0,1
0,0
1,0
1,1
1,0
0,0
1,0
1,1
0,0
0,1
0,0
1,0
1,1
0,0
0,1
0,0
1,0
1,1
0,0
1,0
1,1
0,0
1,0
1,1
1,0
1,1
1,0
0,0
1,0
1,1
0,0
0,0
0,0
1,0
1,1
0,1
0,0
1,0
1,1
0,0
1,0
1,1
0,0
0,1
0,0
1,0
1,1
1,0
0,0
1,0
1,1
0,0
0,1
0,0
1,0
1,1
1,0
1,1
1,0
1,1
0,1
0,0
1,0
1,1
1,0
0,0
1,0
1,1
0,0
0,1
0,0
1,0
1,1
1,0
1,1
0,1
0,0
1,0
1,1
0,0
0,1
0,0
1,0
1,1
0,0
1,0
1,1
0,1
0,0
1,0
1,1
0,1
0,0
1,0
1,1
0,0
0,1
0,0
1,0
1,1
1,0
0,0
0,0
0,0
1,0
1,1
1,0
1,1
0,0
1,0
1,1
0,1
0,0
1,0
1,1
1,0
1,1
0,1
0,0
1,0
1,1
0,1
0,0
1,0
1,1
0,1
0,0
1,0
1,1
0,0
1,0
1,1
0,1
0,0
1,0
1,1
0,0
0,1
0,0
1,0
1,1
1,0
0,0
1,0
1,1
0,1
0,0
1,0
1,1
0,1
0,0
1,0
1,1
0,1
0,0
1,0
1,1
0,1
0,0
1,0
1,1
1,0
1,1
0,0
0,1
0,0
0,0
0,0
1,0
1,1
0,1
0,0
1,0
1,1
1,0
1,1
0,0
1,0
1,1
0,0
1,0
1,1
0,1
0,0
1,0
1,1
0,1
0,0
0,1
0,0
1,0
1,1
0,1
0,0
1,0
1,1
0,0
0,1
0,0
1,0
1,1
1,0
1,1
0,1
0,0
1,0
1,1
0,0
1,0
1,1
0,0
1,0
1,1
1,0
0,0
1,0
1,1
0,0
0,1
0,0
1,0
1,1
0,1
0,0
1,0
1,1
0,1
0,0
1,0
1,1
0,0
0,1
0,0
0,0
0,0
1,0
1,1
0,1
0,0
0,1
0,0
1,0
1,1
1,0
0,0
1,0
1,1
0,1
0,0
1,0
1,1
0,0
0,1
0,0
1,0
1,1
0,1
0,0
1,0
1,1
0,1
0,0
1,0
1,1
0,1
0,0
1,0
1,1
0,1
0,0
1,0
1,1
0,0
0,1
0,0
1,0
1,1
1,0
0,0
1,0
1,1
0,1
0,0
1,0
1,1
0,1
0,0
0,1
0,0
1,0
1,1
1,0
0,0
1,0
1,1
1,0
1,1
0,0
0,0
0,0
1,0
1,1
1,0
1,1
0,0
1,0
1,1
0,0
1,0
1,1
0,1
0,0
0,1
0,0
1,0
1,1
0,0
1,0
1,1
1,0
0,0
1,0
1,1
0,1
0,0
1,0
1,1
0,1
0,0
1,0
1,1
0,1
0,0
1,0
1,1
0,1
0,0
0,1
0,0
1,0
1,1
0,0
1,0
1,1
1,0
0,0
1,0
1,1
0,1
0,0
1,0
1,1
0,1
0,0
1,0
1,1
1,0
1,1
1,0
0,0
1,0
1,1
1,1
1,1
0,1
0,0
1,0
1,1
1,0
0,0
1,0
1,1
1,0
1,1
0,0
1,0
1,1
0,1
0,0
1,0
1,1
0,1
0,0
1,0
1,1
0,0
1,0
1,1
0,0
1,0
1,1
0,0
0,1
0,0
1,0
1,1
1,0
1,1
0,1
0,0
1,0
1,1
0,0
1,0
1,1
1,0
0,0
1,0
1,1
0,1
0,0
1,0
1,1
0,0
1,0
1,1
0,1
0,0
0,1
0,0
1,0
1,1
1,0
1,1
0,0
0,0
0,0
1,0
1,1
0,1
0,0
1,0
1,1
0,0
1,0
1,1
0,1
0,0
0,1
0,0
1,0
1,1
1,0
1,1
0,0
1,0
1,1
1,0
1,1
1,0
0,0
1,0
1,1
0,1
0,0
1,0
0,0
1,0
0,0
1,0
0,0
1,0
0,0
1,0
0,0
1,0
0,0
1,0
0,0
1,0
0,0
0,0
0,0
1,0
0,0
1,0
0,0
1,0
0,0
1,0
0,0
1,0
0,0
1,0
0,0
1,0
0,0
1,0
0,0
1,0
0,0
1,0
0,0
1,0
0,0
1,0
0,0
1,0
0,0
1,0
0,0
1,0
1,0
1,0
0,0
1,0
0,0
1,0
0,0
1,0
0,0
1,0
0,0
1,0
0,0
1,0
0,0
1,0
0,0
1,0
0,0
1,0
0,0
1,0
0,0
1,0
0,0
1,0
0,0
1,0
0,0
1,0
0,0
0,0
0,0
1,0
0,0
1,0
0,0
1,0
0,0
1,0
0,0
1,0
0,0
1,0
0,0
1,0
0,0
1,0
0,0
1,0
0,0
1,0
0,0
1,0
0,0
1,0
0,0
1,0
0,0
1,0
0,0
0,0
0,0
1,0
0,0
1,0
0,0
1,0
0,0
1,0
0,0
1,0
0,0
1,0
0,0
1,0
0,0
1,0
0,0
1,0
0,0
1,0
0,0
1,0
0,0
1,0
0,0
1,0
0,0
1,0
0,0
1,0
0,0
0,0
0,0
1,0
0,0
1,0
0,0
1,0
0,0
1,0
0,0
1,0
0,0
1,0
0,0
1,0
0,0
1,0
0,0
1,0
0,0
1,0
0,0
1,0
0,0
1,0
0,0
1,0
0,0
1,0
0,0
0,0
0,0
1,0
0,0
1,0
0,0
1,0
0,0
1,0
0,0
1,0
0,0
1,0
0,0
1,0
0,0
1,0
0,0
1,0
0,0
1,0
0,0
1,0
0,0
1,0
0,0
1,0
0,0
1,0
0,0
1,0
1,0
1,0
0,0
1,0
0,0
1,0
0,0
1,0
0,0
1,0
0,0
1,0
0,0
1,0
0,0
1,0
0,0
1,0
0,0
1,0
0,0
1,0
0,0
1,0
0,0
1,0
0,0
1,0
0,0
1,0
0,0
0,0
0,0
1,0
0,0
1,0
0,0
1,0
0,0
1,0
0,0
1,0
0,0
1,0
0,0
1,0
0,0
1,0
0,0
1,0
0,0
1,0
0,0
1,0
0,0
1,0
0,0
1,0
0,0
1,0
0,0
0,0
0,0
1,0
0,0
1,0
0,0
1,0
0,0
1,0
0,0
1,0
0,0
1,0
0,0
1,0
0,0
1,0
0,0
1,0
0,0
1,0
0,0
1,0
0,0
1,0
0,0
1,0
0,0
1,0
0,0
1,0
0,0
0,0
0,0
1,0
0,0
1,0
0,0
1,0
0,0
1,0
0,0
1,0
0,0
1,0
0,0
1,0
0,0
1,0
0,0
1,0
0,0
1,0
0,0
1,0
0,0
1,0
0,0
1,0
0,0
1,0
0,0
0,0
0,0
1,0
0,0
1,0
0,0
1,0
0,0
1,0
0,0
1,0
0,0
1,0
0,0
1,0
0,0
1,0
0,0
1,0
0,0
1,0
0,0
1,0
0,0
1,0
0,0
1,0
0,0
1,0
0,0
1,0
1,0
1,0
0,0
1,0
0,0
1,0
0,0
1,0
0,0
1,0
0,0
1,0
0,0
1,0
0,0
1,0
0,0
1,0
0,0
1,0
0,0
1,0
0,0
1,0
0,0
1,0
0,0
1,0
0,0
1,0
0,0
0,0
0,0
1,0
0,0
1,0
0,0
1,0
0,0
1,0
0,0
1,0
0,0
1,0
0,0
1,0
0,0
1,0
0,0
1,0
0,0
1,0
0,0
1,0
0,0
1,0
0,0
1,0
0,0
1,0
0,0
0,0
0,0
1,0
0,0
1,0
0,0
1,0
0,0
1,0
0,0
1,0
0,0
1,0
0,0
1,0
0,0
1,0
0,0
1,0
0,0
1,0
0,0
1,0
0,0
1,0
0,0
1,0
0,0
1,0
0,0
1,0
0,0
0,0
0,0
1,0
0,0
1,0
0,0
1,0
0,0
1,0
0,0
1,0
0,0
1,0
0,0
1,0
0,0
1,0
0,0
1,0
0,0
1,0
0,0
1,0
0,0
1,0
0,0
1,0
0,0
1,0
0,0
0,0
0,0
1,0
0,0
1,0
0,0
1,0
0,0
1,0
0,0
1,0
0,0
1,0
0,0
1,0
0,0
1,0
0,0
1,0
0,0
1,0
0,0
1,0
0,0
1,0
0,0
1,0
0,0
1,0
0,0
1,0
1,0
1,0
0,0
1,0
0,0
1,0
0,0
1,0
0,0
1,0
0,0
1,0
0,0
1,0
0,0
1,0
0,0
1,0
0,0
1,0
0,0
1,0
0,0
1,0
0,0
1,0
0,0
1,0
0,0
1,0
0,0
0,0
0,0
1,0
0,0
1,0
0,0
1,0
0,0
1,0
0,0
1,0
0,0
1,0
0,0
1,0
0,0
1,0
0,0
1,0
0,0
1,0
0,0
1,0
0,0
1,0
0,0
1,0
0,0
1,0
0,0
1,0
1,0
1,0
0,0
1,0
0,0
1,0
0,0
1,0
0,0
1,0
0,0
1,0
0,0
1,0
0,0
1,0
0,0
1,0
0,0
1,0
0,0
1,0
0,0
1,0
0,0
1,0
0,0
1,0
0,0
1,0
0,0
0,0
0,0
1,0
0,0
1,0
0,0
1,0
0,0
1,0
0,0
1,0
0,0
1,0
0,0
1,0
0,0
1,0
0,0
1,0
0,0
1,0
0,0
1,0
0,0
1,0
0,0
1,0
0,0
1,0
0,0
0,0
0,0
1,0
0,0
1,0
0,0
1,0
0,0
1,0
0,0
1,0
0,0
1,0
0,0
1,0
0,0
1,0
0,0
1,0
0,0
1,0
0,0
1,0
0,0
1,0
0,0
1,0
0,0
1,0
0,0
1,0
1,0
1,0
0,0
1,0
0,0
1,0
0,0
1,0
0,0
1,0
0,0
1,0
0,0
1,0
0,0
1,0
0,0
1,0
0,0
1,0
0,0
1,0
0,0
1,0
0,0
1,0
0,0
1,0
0,0
1,0
0,0
0,0
0,0
1,0
0,0
1,0
0,0
1,0
0,0
1,0
0,0
1,0
0,0
1,0
0,0
1,0
0,0
1,0
0,0
1,0
0,0
1,0
0,0
1,0
0,0
1,0
0,0
1,0
0,0
1,0
0,0
0,0
0,0
1,0
0,0
1,0
0,0
1,0
0,0
1,0
0,0
1,0
0,0
1,0
0,0
1,0
0,0
1,0
0,0
1,0
0,0
1,0
0,0
1,0
0,0
1,0
0,0
1,0
0,0
1,0
0,0
1,0
0,0
0,0
0,0
1,0
0,0
1,0
0,0
1,0
0,0
1,0
0,0
1,0
0,0
1,0
0,0
1,0
0,0
1,0
0,0
1,0
0,0
1,0
0,0
1,0
0,0
1,0
0,0
1,0
0,0
1,0
0,0
0,0
0,0
1,0
0,0
1,0
0,0
1,0
0,0
1,0
0,0
1,0
0,0
1,0
0,0
1,0
0,0
1,0
0,0
1,0
1,1
0,1
0,0
1,0
1,1
0,1
0,0
1,0
1,1
1,0
1,1
1,0
1,1
0,1
0,0
1,0
1,1
0,1
0,0
1,0
1,1
1,0
0,0
1,0
1,1
1,0
0,0
1,0
1,1
1,1
1,1
0,0
0,1
0,0
1,0
1,1
0,0
1,0
1,1
0,1
0,0
1,0
1,1
0,1
0,0
1,0
1,1
0,1
0,0
1,0
1,1
0,0
0,1
0,0
1,0
1,1
0,1
0,0
1,0
1,1
1,0
1,1
0,1
0,0
1,0
1,1
0,1
0,0
1,0
1,1
0,0
0,1
0,0
1,0
1,1
0,1
0,0
1,0
1,1
0,1
0,0
1,0
1,1
0,0
1,0
1,1
1,0
0,0
1,0
1,1
1,0
1,1
0,0
0,1
0,0
0,0
0,0
1,0
1,1
0,1
0,0
0,1
0,0
1,0
1,1
0,0
1,0
1,1
0,0
1,0
1,1
0,0
0,1
0,0
1,0
1,1
0,0
0,1
0,0
1,0
1,1
0,0
0,1
0,0
1,0
1,1
0,0
1,0
1,1
1,0
0,0
1,0
1,1
0,0
0,1
0,0
1,0
1,1
0,0
0,1
0,0
1,0
1,1
1,0
1,1
0,1
0,0
1,0
1,1
1,0
0,0
1,0
1,1
0,0
0,1
0,0
1,0
1,1
0,1
0,0
0,0
0,0
1,0
1,1
0,1
0,0
1,0
1,1
0,0
0,1
0,0
1,0
1,1
0,1
0,0
1,0
1,1
0,1
0,0
1,0
1,1
0,1
0,0
1,0
1,1
0,1
0,0
1,0
1,1
1,0
1,1
0,0
0,1
0,0
1,0
1,1
0,1
0,0
1,0
1,1
0,1
0,0
1,0
1,1
0,1
0,0
1,0
1,1
0,1
0,0
1,0
1,1
0,1
0,0
1,0
1,1
0,1
0,0
1,0
1,1
0,1
0,0
1,0
1,1
1,1
1,1
0,0
0,1
0,0
1,0
1,1
0,0
1,0
1,1
0,1
0,0
1,0
1,1
0,1
0,0
1,0
1,1
0,0
0,1
0,0
1,0
1,1
1,0
1,1
0,0
1,0
1,1
0,1
0,0
1,0
1,1
0,1
0,0
1,0
1,1
0,0
1,0
1,1
0,0
1,0
1,1
0,1
0,0
1,0
1,1
1,0
0,0
1,0
1,1
1,0
1,1
1,0
0,0
1,0
1,1
0,0
0,1
0,0
1,0
1,1
0,1
0,0
0,0
0,0
1,0
1,1
0,1
0,0
1,0
1,1
0,0
1,0
1,1
0,1
0,0
1,0
1,1
0,0
0,1
0,0
1,0
1,1
0,1
0,0
1,0
1,1
1,0
0,0
1,0
1,1
0,1
0,0
1,0
1,1
0,1
0,0
1,0
1,1
0,1
0,0
1,0
1,1
0,0
1,0
1,1
0,1
0,0
1,0
1,1
0,0
0,1
0,0
1,0
1,1
0,1
0,0
1,0
1,1
0,0
0,1
0,0
1,0
1,1
1,1
1,1
1,0
0,0
1,0
1,1
1,0
0,0
1,0
1,1
0,1
0,0
1,0
1,1
0,0
1,0
1,1
1,0
0,0
1,0
1,1
0,0
1,0
1,1
0,1
0,0
1,0
1,1
1,0
0,0
1,0
1,1
0,1
0,0
1,0
1,1
0,1
0,0
1,0
1,1
1,0
0,0
1,0
1,1
1,0
1,1
0,0
1,0
1,1
0,1
0,0
1,0
1,1
0,0
1,0
1,1
0,1
0,0
0,0
0,0
1,0
1,1
0,0
1,0
1,1
0,1
0,0
1,0
1,1
1,0
0,0
1,0
1,1
0,1
0,0
1,0
1,1
1,0
0,0
1,0
1,1
1,0
1,1
1,0
1,1
0,0
1,0
1,1
0,1
0,0
1,0
1,1
0,0
0,1
0,0
1,0
1,1
1,0
1,1
0,0
0,1
0,0
1,0
1,1
1,0
0,0
1,0
1,1
0,1
0,0
1,0
1,1
0,1
0,0
1,0
1,1
0,0
0,1
0,0
1,0
1,1
1,0
1,1
1,0
0,0
0,0
0,0
1,0
1,1
1,0
0,0
1,0
1,1
0,0
0,1
0,0
1,0
1,1
1,0
1,1
0,1
0,0
1,0
1,1
0,0
1,0
1,1
0,0
0,1
0,0
1,0
1,1
0,0
0,1
0,0
1,0
1,1
0,1
0,0
1,0
1,1
0,0
0,1
0,0
1,0
1,1
1,0
1,1
0,1
0,0
1,0
1,1
0,1
0,0
1,0
1,1
0,0
0,1
0,0
1,0
1,1
0,1
0,0
1,0
1,1
0,1
0,0
1,0
1,1
1,0
1,1
1,0
1,1
1,0
0,0
1,0
1,1
0,1
0,0
0,0
0,0
1,0
1,1
1,0
0,0
1,0
1,1
0,1
0,0
1,0
1,1
0,0
0,1
0,0
1,0
1,1
0,1
0,0
1,0
1,1
1,0
0,0
1,0
1,1
0,1
0,0
0,1
0,0
1,0
1,1
0,1
0,0
1,0
1,1
0,0
0,1
0,0
1,0
1,1
0,1
0,0
1,0
1,1
0,1
0,0
1,0
1,1
0,0
0,1
0,0
1,0
1,1
0,1
0,0
1,0
1,1
0,0
1,0
1,1
0,0
0,1
0,0
0,0
0,0
1,0
1,1
0,1
0,0
1,0
1,1
1,0
0,0
1,0
1,1
0,1
0,0
1,0
1,1
0,1
0,0
1,0
1,1
1,0
1,1
0,0
1,0
1,1
0,0
0,1
0,0
1,0
1,1
1,0
1,1
0,0
0,1
0,0
1,0
1,1
1,0
0,0
1,0
1,1
0,0
1,0
1,1
0,1
0,0
1,0
1,1
1,0
0,0
1,0
1,1
0,1
0,0
1,0
1,1
1,0
1,1
1,0
1,1
0,1
0,0
1,0
1,1
0,1
0,0
0,1
0,0
1,0
1,1
0,0
0,1
0,0
0,0
0,0
1,0
1,1
1,0
1,1
1,0
1,1
1,0
0,0
1,0
1,1
0,1
0,0
1,0
1,1
0,1
0,0
1,0
1,1
0,0
0,1
0,0
1,0
1,1
1,0
0,0
1,0
1,1
1,0
1,1
1,0
1,1
0,0
0,1
0,0
1,0
1,1
0,1
0,0
1,0
1,1
0,0
0,1
0,0
1,0
1,1
0,0
1,0
1,1
1,0
0,0
1,0
1,1
0,0
1,0
1,1
0,1
0,0
1,0
1,1
0,1
0,0
1,0
1,1
0,1
0,0
0,0
0,0
1,0
1,1
1,0
1,1
0,1
0,0
1,0
1,1
0,1
0,0
1,0
1,1
0,1
0,0
1,0
1,1
1,0
1,1
0,0
1,0
1,1
0,1
0,0
1,0
1,1
1,0
0,0
1,0
1,1
1,0
1,1
0,1
0,0
1,0
1,1
0,1
0,0
1,0
1,1
0,1
0,0
1,0
1,1
1,0
0,0
1,0
1,1
0,0
1,0
1,1
0,0
0,1
0,0
1,0
1,1
0,1
0,0
1,0
1,1
0,0
1,0
1,1
1,1
1,1
0,1
0,0
1,0
1,1
1,0
1,1
0,1
0,0
1,0
1,1
1,0
1,1
0,0
0,1
0,0
1,0
1,1
1,0
1,1
0,0
0,1
0,0
1,0
1,1
0,1
0,0
1,0
1,1
0,1
0,0
1,0
1,1
0,1
0,0
1,0
1,1
0,1
0,0
1,0
1,1
0,1
0,0
1,0
1,1
0,1
0,0
1,0
1,1
0,1
0,0
1,0
1,1
0,0
1,0
1,1
0,0
0,1
0,0
1,0
1,1
1,0
1,1
0,0
1,0
1,1
0,0
0,0
0,0
1,0
1,1
0,0
0,1
0,0
1,0
1,1
0,0
0,1
0,0
1,0
1,1
0,1
0,0
1,0
1,1
0,1
0,0
1,0
1,1
0,0
1,0
1,1
0,0
0,1
0,0
1,0
1,1
0,1
0,0
1,0
0,0
1,0
0,0
1,0
0,0
1,0
0,0
1,0
0,0
1,0
0,0
1,0
0,0
0,0
0,0
1,0
0,0
1,0
0,0
1,0
0,0
1,0
0,0
1,0
0,0
1,0
0,0
1,0
0,0
1,0
0,0
1,0
0,0
1,0
0,0
1,0
0,0
1,0
0,0
1,0
0,0
1,0
0,0
1,0
1,0
1,0
0,0
1,0
0,0
1,0
0,0
1,0
0,0
1,0
0,0
1,0
0,0
1,0
0,0
1,0
0,0
1,0
0,0
1,0
0,0
1,0
0,0
1,0
0,0
1,0
0,0
1,0
0,0
1,0
0,0
0,0
0,0
1,0
0,0
1,0
0,0
1,0
0,0
1,0
0,0
1,0
0,0
1,0
0,0
1,0
0,0
1,0
0,0
1,0
0,0
1,0
0,0
1,0
0,0
1,0
0,0
1,0
0,0
1,0
0,0
0,0
0,0
1,0
0,0
1,0
0,0
1,0
0,0
1,0
0,0
1,0
0,0
1,0
0,0
1,0
0,0
1,0
0,0
1,0
0,0
1,0
0,0
1,0
0,0
1,0
0,0
1,0
0,0
1,0
0,0
1,0
0,0
0,0
0,0
1,0
0,0
1,0
0,0
1,0
0,0
1,0
0,0
1,0
0,0
1,0
0,0
1,0
0,0
1,0
0,0
1,0
0,0
1,0
0,0
1,0
0,0
1,0
0,0
1,0
0,0
1,0
0,0
0,0
0,0
1,0
0,0
1,0
0,0
1,0
0,0
1,0
0,0
1,0
0,0
1,0
0,0
1,0
0,0
1,0
0,0
1,0
0,0
1,0
0,0
1,0
0,0
1,0
0,0
1,0
0,0
1,0
0,0
1,0
1,0
1,0
0,0
1,0
0,0
1,0
0,0
1,0
0,0
1,0
0,0
1,0
0,0
1,0
0,0
1,0
0,0
1,0
0,0
1,0
0,0
1,0
0,0
1,0
0,0
1,0
0,0
1,0
0,0
1,0
0,0
0,0
0,0
1,0
0,0
1,0
0,0
1,0
0,0
1,0
0,0
1,0
0,0
1,0
0,0
1,0
0,0
1,0
0,0
1,0
0,0
1,0
0,0
1,0
0,0
1,0
0,0
1,0
0,0
1,0
0,0
0,0
0,0
1,0
0,0
1,0
0,0
1,0
0,0
1,0
0,0
1,0
0,0
1,0
0,0
1,0
0,0
1,0
0,0
1,0
0,0
1,0
0,0
1,0
0,0
1,0
0,0
1,0
0,0
1,0
0,0
1,0
0,0
0,0
0,0
1,0
0,0
1,0
0,0
1,0
0,0
1,0
0,0
1,0
0,0
1,0
0,0
1,0
0,0
1,0
0,0
1,0
0,0
1,0
0,0
1,0
0,0
1,0
0,0
1,0
0,0
1,0
0,0
0,0
0,0
1,0
0,0
1,0
0,0
1,0
0,0
1,0
0,0
1,0
0,0
1,0
0,0
1,0
0,0
1,0
0,0
1,0
0,0
1,0
0,0
1,0
0,0
1,0
0,0
1,0
0,0
1,0
0,0
1,0
1,0
1,0
0,0
1,0
0,0
1,0
0,0
1,0
0,0
1,0
0,0
1,0
0,0
1,0
0,0
1,0
0,0
1,0
0,0
1,0
0,0
1,0
0,0
1,0
0,0
1,0
0,0
1,0
0,0
1,0
0,0
0,0
0,0
1,0
0,0
1,0
0,0
1,0
0,0
1,0
0,0
1,0
0,0
1,0
0,0
1,0
0,0
1,0
0,0
1,0
0,0
1,0
0,0
1,0
0,0
1,0
0,0
1,0
0,0
1,0
0,0
0,0
0,0
1,0
0,0
1,0
0,0
1,0
0,0
1,0
0,0
1,0
0,0
1,0
0,0
1,0
0,0
1,0
0,0
1,0
0,0
1,0
0,0
1,0
0,0
1,0
0,0
1,0
0,0
1,0
0,0
1,0
0,0
0,0
0,0
1,0
0,0
1,0
0,0
1,0
0,0
1,0
0,0
1,0
0,0
1,0
0,0
1,0
0,0
1,0
0,0
1,0
0,0
1,0
0,0
1,0
0,0
1,0
0,0
1,0
0,0
1,0
0,0
0,0
0,0
1,0
0,0
1,0
0,0
1,0
0,0
1,0
0,0
1,0
0,0
1,0
0,0
1,0
0,0
1,0
0,0
1,0
0,0
1,0
0,0
1,0
0,0
1,0
0,0
1,0
0,0
1,0
0,0
1,0
1,0
1,0
0,0
1,0
0,0
1,0
0,0
1,0
0,0
1,0
0,0
1,0
0,0
1,0
0,0
1,0
0,0
1,0
0,0
1,0
0,0
1,0
0,0
1,0
0,0
1,0
0,0
1,0
0,0
1,0
0,0
0,0
0,0
1,0
0,0
1,0
0,0
1,0
0,0
1,0
0,0
1,0
0,0
1,0
0,0
1,0
0,0
1,0
0,0
1,0
0,0
1,0
0,0
1,0
0,0
1,0
0,0
1,0
0,0
1,0
0,0
0,0
0,0
1,0
0,0
1,0
0,0
1,0
0,0
1,0
0,0
1,0
0,0
1,0
0,0
1,0
0,0
1,0
0,0
1,0
0,0
1,0
0,0
1,0
0,0
1,0
0,0
1,0
0,0
1,0
0,0
1,0
0,0
0,0
0,0
1,0
0,0
1,0
0,0
1,0
0,0
1,0
0,0
1,0
0,0
1,0
0,0
1,0
0,0
1,0
0,0
1,0
0,0
1,0
0,0
1,0
0,0
1,0
0,0
1,0
0,0
1,0
0,0
0,0
0,0
1,0
0,0
1,0
0,0
1,0
0,0
1,0
0,0
1,0
0,0
1,0
0,0
1,0
0,0
1,0
0,0
1,0
0,0
1,0
0,0
1,0
0,0
1,0
0,0
1,0
0,0
1,0
0,0
1,0
1,0
1,0
0,0
1,0
0,0
1,0
0,0
1,0
0,0
1,0
0,0
1,0
0,0
1,0
0,0
1,0
0,0
1,0
0,0
1,0
0,0
1,0
0,0
1,0
0,0
1,0
0,0
1,0
0,0
1,0
0,0
0,0
0,0
1,0
0,0
1,0
0,0
1,0
0,0
1,0
0,0
1,0
0,0
1,0
0,0
1,0
0,0
1,0
0,0
1,0
0,0
1,0
0,0
1,0
0,0
1,0
0,0
1,0
0,0
1,0
0,0
0,0
0,0
1,0
0,0
1,0
0,0
1,0
0,0
1,0
0,0
1,0
0,0
1,0
0,0
1,0
0,0
1,0
0,0
1,0
0,0
1,0
0,0
1,0
0,0
1,0
0,0
1,0
0,0
1,0
0,0
1,0
0,0
0,0
0,0
1,0
0,0
1,0
0,0
1,0
0,0
1,0
0,0
1,0
0,0
1,0
0,0
1,0
0,0
1,0
0,0
1,0
0,0
1,0
0,0
1,0
0,0
1,0
0,0
1,0
0,0
1,0
0,0
0,0
0,0
1,0
0,0
1,0
0,0
1,0
0,0
1,0
0,0
1,0
0,0
1,0
0,0
1,0
0,0
1,0
0,0
1,0
0,0
1,0
0,0
1,0
0,0
1,0
0,0
1,0
0,0
1,0
0,0
1,0
1,0
1,0
0,0
1,0
0,0
1,0
0,0
1,0
0,0
1,0
0,0
1,0
0,0
1,0
0,0
1,0
0,0
1,0
0,0
1,0
0,0
1,0
0,0
1,0
0,0
1,0
0,0
1,0
0,0
1,0
0,0
0,0
0,0
1,0
0,0
1,0
0,0
1,0
0,0
1,0
0,0
1,0
0,0
1,0
0,0
1,0
0,0
1,0
0,0
1,0
0,0
1,0
0,0
1,0
0,0
1,0
0,0
1,0
0,0
1,0
0,0
0,0
0,0
1,0
0,0
1,0
0,0
1,0
0,0
1,0
0,0
1,0
0,0
1,0
0,0
1,0
0,0
1,0
0,0
1,0
0,0
1,0
0,0
1,0
0,0
1,0
0,0
1,0
0,0
1,0
0,0
1,0
0,0
0,0
0,0
1,0
0,0
1,0
0,0
1,0
0,0
1,0
0,0
1,0
0,0
1,0
0,0
1,0
0,0
1,0
0,0
1,0
0,0
1,0
0,0
1,0
1,1
0,1
0,0
1,0
1,1
0,1
0,0
1,0
1,1
0,0
1,0
1,1
0,1
0,0
0,0
0,0
1,0
1,1
0,0
0,1
0,0
1,0
1,1
0,1
0,0
1,0
1,1
0,1
0,0
1,0
1,1
0,0
0,1
0,0
1,0
1,1
0,0
0,1
0,0
1,0
1,1
0,1
0,0
1,0
1,1
0,1
0,0
1,0
1,1
0,0
0,1
0,0
1,0
1,1
0,0
1,0
1,1
1,0
1,1
0,1
0,0
1,0
1,1
1,0
1,1
1,0
1,1
1,0
0,0
1,0
1,1
0,1
0,0
1,0
1,1
1,0
0,0
1,0
1,1
0,1
0,0
0,0
0,0
1,0
1,1
1,0
0,0
1,0
1,1
0,1
0,0
1,0
1,1
1,0
0,0
1,0
1,1
0,1
0,0
1,0
1,1
0,1
0,0
1,0
1,1
0,0
0,1
0,0
1,0
1,1
0,0
1,0
1,1
1,0
1,1
0,1
0,0
1,0
1,1
0,0
1,0
1,1
0,1
0,0
1,0
1,1
1,0
0,0
1,0
1,1
0,1
0,0
1,0
1,1
1,0
1,1
1,0
1,1
0,1
0,0
1,0
1,1
0,1
0,0
1,0
1,1
0,0
0,0
0,0
1,0
1,1
0,1
0,0
1,0
1,1
0,0
0,1
0,0
1,0
1,1
1,0
1,1
0,1
0,0
1,0
1,1
0,1
0,0
1,0
1,1
0,0
1,0
1,1
0,1
0,0
1,0
1,1
0,1
0,0
1,0
1,1
0,0
0,1
0,0
1,0
1,1
1,0
1,1
1,0
1,1
0,1
0,0
1,0
1,1
0,0
1,0
1,1
0,0
0,1
0,0
1,0
1,1
0,1
0,0
1,0
1,1
0,1
0,0
1,0
1,1
0,0
0,1
0,0
0,0
0,0
1,0
1,1
0,0
0,1
0,0
1,0
1,1
0,0
1,0
1,1
1,0
0,0
1,0
1,1
0,1
0,0
1,0
1,1
0,0
1,0
1,1
0,1
0,0
1,0
1,1
1,0
1,1
0,1
0,0
1,0
1,1
0,1
0,0
1,0
1,1
1,0
0,0
1,0
1,1
0,1
0,0
1,0
1,1
0,1
0,0
1,0
1,1
1,0
1,1
1,0
1,1
0,0
1,0
1,1
0,1
0,0
1,0
1,1
0,1
0,0
1,0
1,1
1,1
1,1
0,0
1,0
1,1
0,0
0,1
0,0
1,0
1,1
0,1
0,0
0,1
0,0
1,0
1,1
0,1
0,0
1,0
1,1
0,1
0,0
1,0
1,1
0,1
0,0
1,0
