; CSV generated by libsigrok 0.5.0
; from Saleae Logic16 on Mon Apr 16 15:15:11 2018
 15
; Samplerate: 16 MHz
logic,logic
0,0
1,0
0,0
1,0
0,0
1,0
0,0
1,0
0,0
1,0
0,0
1,0
0,0
1,0
0,0
1,0
0,0
1,0
0,0
1,0
0,0
1,0
0,0
1,0
0,0
1,0
0,0
1,0
0,0
1,0
0,0
1,0
0,0
1,0
0,0
1,0
0,0
1,0
0,0
1,0
0,0
1,0
0,0
1,0
0,0
1,0
0,0
1,0
0,0
1,0
0,0
1,0
0,0
1,0
0,0
1,0
0,0
1,0
0,0
1,0
0,0
1,0
0,0
1,0
0,0
1,0
0,0
1,0
0,0
1,0
0,0
1,0
0,0
0,0
0,0
1,0
0,0
1,0
0,0
1,0
0,0
1,0
0,0
1,0
0,0
1,0
0,0
1,0
0,0
1,0
0,0
1,0
0,0
1,0
0,0
1,0
0,0
1,0
0,0
1,0
0,0
1,0
0,0
1,0
0,0
1,0
0,0
1,0
0,0
1,0
0,0
1,0
0,0
1,0
0,0
1,0
0,0
1,0
0,0
1,0
0,0
1,0
0,0
1,0
0,0
1,0
0,0
1,0
0,0
1,0
0,0
1,0
0,0
1,0
0,0
1,0
0,0
1,0
0,0
1,0
0,0
1,0
0,0
1,0
0,0
1,0
0,0
0,0
0,0
1,0
0,0
1,0
0,0
1,0
0,0
1,0
0,0
1,0
0,0
1,0
0,0
1,0
0,0
1,0
0,0
1,0
0,0
1,0
0,0
1,0
0,0
1,0
0,0
1,0
0,0
1,0
0,0
1,0
0,0
1,0
0,0
1,0
0,0
1,0
0,0
1,0
0,0
1,0
0,0
1,0
0,0
1,0
0,0
1,0
0,0
1,0
0,0
1,0
0,0
1,0
0,0
1,0
0,0
1,0
0,0
1,0
0,0
1,0
0,0
1,0
0,0
1,0
0,0
1,0
0,0
1,0
0,0
1,0
0,0
1,0
0,0
0,0
0,0
1,0
0,0
1,0
0,0
1,0
0,0
1,0
0,0
1,0
0,0
1,0
0,0
1,0
0,0
1,0
0,0
1,0
0,0
1,0
0,0
1,0
0,0
1,0
0,0
1,0
0,0
1,0
0,0
1,0
0,0
1,0
0,0
1,0
0,0
1,0
0,0
1,0
0,0
1,0
0,0
1,0
0,0
1,0
0,0
1,0
0,0
1,0
0,0
1,0
0,0
1,0
0,0
1,0
0,0
1,0
0,0
1,0
0,0
1,0
0,0
1,0
0,0
1,0
0,0
1,0
0,0
1,0
0,0
1,0
0,0
1,0
0,0
0,0
0,0
1,0
0,0
1,0
0,0
1,0
0,0
1,0
0,0
1,0
0,0
1,0
0,0
1,0
0,0
1,0
0,0
1,0
0,0
1,0
0,0
1,0
0,0
1,0
0,0
1,0
0,0
1,0
0,0
1,0
0,0
1,0
0,0
1,0
0,0
1,0
0,0
1,0
0,0
1,0
0,0
1,0
0,0
1,0
0,0
1,0
0,0
1,0
0,0
1,0
0,0
1,0
0,0
1,0
0,0
1,0
0,0
1,0
0,0
1,0
0,0
1,0
0,0
1,0
0,0
1,0
0,0
1,0
0,0
1,0
0,0
1,0
0,0
0,0
0,0
1,0
0,0
1,0
0,0
1,0
0,0
1,0
0,0
1,0
0,0
1,0
0,0
1,0
0,0
1,0
0,0
1,0
0,0
1,0
0,0
1,0
0,0
1,0
0,0
1,0
0,0
1,0
0,0
1,0
0,0
1,0
0,0
1,0
0,0
1,0
0,0
1,0
0,0
1,0
0,0
1,0
0,0
1,0
0,0
1,0
0,0
1,0
0,0
1,0
0,0
1,0
0,0
1,0
0,0
1,0
0,0
1,0
0,0
1,0
0,0
1,0
0,0
1,0
0,0
1,0
0,0
1,0
0,0
1,0
0,0
1,0
0,0
1,0
0,0
0,0
0,0
1,0
0,0
1,0
0,0
1,0
0,0
1,0
0,0
1,0
0,0
1,0
0,0
1,0
0,0
1,0
0,0
1,0
0,0
1,0
0,0
1,0
0,0
1,0
0,0
1,0
0,0
1,0
0,0
1,0
0,0
1,0
0,0
1,0
0,0
1,0
0,0
1,0
0,0
1,0
0,0
1,0
0,0
1,0
0,0
1,0
0,0
1,0
0,0
1,0
0,0
1,0
0,0
1,0
0,0
1,0
0,0
1,0
0,0
1,0
0,0
1,0
0,0
1,0
0,0
1,0
0,0
1,0
0,0
1,0
0,0
1,0
0,0
0,0
0,0
1,0
0,0
1,0
0,0
1,0
0,0
1,0
0,0
1,0
0,0
1,0
0,0
1,0
0,0
1,0
0,0
1,0
0,0
1,0
0,0
1,0
0,0
1,0
0,0
1,0
0,0
1,0
0,0
1,0
0,0
1,0
0,0
1,0
0,0
1,0
0,0
1,0
0,0
1,0
0,0
1,0
0,0
1,0
0,0
1,0
0,0
1,0
0,0
1,0
0,0
1,0
0,0
1,0
0,0
1,0
0,0
1,0
0,0
1,0
0,0
1,0
0,0
1,0
0,0
1,0
0,0
1,0
0,0
1,0
0,0
1,0
0,0
0,0
0,0
1,0
0,0
1,0
0,0
1,0
0,0
1,0
0,0
1,0
0,0
1,0
0,0
1,0
0,0
1,0
0,0
1,0
0,0
1,0
0,0
1,0
0,0
1,0
0,0
1,0
0,0
1,0
0,0
1,0
0,0
1,0
0,0
1,0
0,0
1,0
0,0
1,0
0,0
1,0
0,0
1,0
0,0
1,0
0,0
1,0
0,0
1,0
0,0
1,0
0,0
1,0
0,0
1,0
0,0
1,0
0,0
1,0
0,0
1,0
0,0
1,0
0,0
1,0
0,0
1,0
0,0
1,0
0,0
1,0
0,0
1,0
0,0
0,0
0,0
1,0
0,0
1,0
0,0
1,0
0,0
1,0
0,0
1,0
0,0
1,0
0,0
1,0
0,0
1,0
0,0
1,0
0,0
1,0
0,0
1,0
0,0
1,0
0,0
1,0
0,0
1,0
0,0
1,0
0,0
1,0
0,0
1,0
0,0
1,0
0,0
1,0
0,0
1,0
0,0
1,0
0,0
1,0
0,0
1,0
0,0
1,0
0,0
1,0
0,0
1,0
0,0
1,0
0,0
1,0
0,0
1,0
0,0
1,0
0,0
1,0
0,0
1,0
0,0
1,0
0,0
1,0
0,0
1,0
0,0
1,0
0,0
0,0
0,0
1,0
0,0
1,0
0,0
1,0
0,0
1,0
0,0
1,0
0,0
1,0
0,0
1,0
0,0
1,0
0,0
1,0
0,0
1,0
0,0
1,0
0,0
1,0
0,0
1,0
0,0
1,0
0,0
1,0
0,0
1,0
0,0
1,0
0,0
1,0
0,0
1,0
0,0
1,0
0,0
1,0
0,0
1,0
0,0
1,0
0,0
1,0
0,0
1,0
0,0
1,0
0,0
1,0
0,0
1,0
0,0
1,0
0,0
1,0
0,0
1,0
0,0
1,0
0,0
1,0
0,0
1,0
0,0
1,0
0,0
1,0
0,0
0,0
0,0
1,0
0,0
1,0
0,0
1,0
0,0
1,0
0,0
1,0
0,0
1,0
0,0
1,0
0,0
1,0
0,0
1,0
0,0
1,0
0,0
1,0
0,0
1,0
0,0
1,0
0,0
1,0
0,0
1,0
0,0
1,0
0,0
1,0
0,0
1,0
0,0
1,0
0,0
1,0
0,0
1,0
0,0
1,0
0,0
1,0
0,0
1,0
0,0
1,0
0,0
1,0
0,0
1,0
0,0
1,0
0,0
1,0
0,0
1,0
0,0
1,0
0,0
1,0
0,0
1,0
0,0
1,0
0,0
1,0
0,0
1,0
0,0
0,0
0,0
1,0
0,0
1,0
0,0
1,0
0,0
1,0
0,0
1,0
0,0
1,0
0,0
1,0
0,0
1,0
0,0
1,0
0,0
1,0
0,0
1,0
0,0
1,0
0,0
1,0
0,0
1,0
0,0
1,0
0,0
1,0
0,0
1,0
0,0
1,0
0,0
1,0
0,0
1,0
0,0
1,0
0,0
1,0
0,0
1,0
0,0
1,0
0,0
1,0
0,0
1,0
0,0
1,0
0,0
1,0
0,0
1,0
0,0
1,0
0,0
1,0
0,0
1,0
0,0
1,0
0,0
1,0
0,0
1,0
0,0
1,0
0,0
0,0
0,0
1,0
0,0
1,0
0,0
1,0
0,0
1,0
0,0
1,0
0,0
1,0
0,0
1,0
0,0
1,0
0,0
1,0
0,0
1,0
0,0
1,0
0,0
1,0
0,0
1,0
0,0
1,0
0,0
1,0
0,0
1,0
0,0
1,0
0,0
1,0
0,0
1,0
0,0
1,0
0,0
1,0
0,0
1,0
0,0
1,0
0,0
1,0
0,0
1,0
0,0
1,0
0,0
1,0
0,0
1,0
0,0
1,0
0,0
1,0
0,0
1,0
0,0
1,0
0,0
1,0
0,0
1,0
0,0
1,0
0,0
1,0
0,0
0,0
0,0
1,0
0,0
1,0
0,0
1,0
0,0
1,0
0,0
1,0
0,0
1,0
0,0
1,0
0,0
1,0
0,0
1,0
0,0
1,0
0,0
1,0
0,0
1,0
0,0
1,0
0,0
1,0
0,0
1,0
0,0
1,0
0,0
1,0
0,0
1,0
0,0
1,0
0,0
1,0
0,0
1,0
0,0
1,0
0,0
1,0
0,0
1,0
0,0
1,0
0,0
1,0
0,0
1,0
0,0
1,0
0,0
1,0
0,0
1,0
0,0
1,0
0,0
1,0
0,0
1,0
0,0
1,0
0,0
1,0
0,0
1,0
0,0
0,0
0,0
1,0
0,0
1,0
0,0
1,0
0,0
1,0
0,0
1,0
0,0
1,0
0,0
1,0
0,0
1,0
0,0
1,0
0,0
1,0
0,0
1,0
0,0
1,0
0,0
1,0
0,0
1,0
0,0
1,0
0,0
1,0
0,0
1,0
0,0
1,0
0,0
1,0
0,0
1,0
0,0
1,0
0,0
1,0
0,0
1,0
0,0
1,0
0,0
1,0
0,0
1,0
0,0
1,0
0,0
1,0
0,0
1,0
0,0
1,0
0,0
1,0
0,0
1,0
0,0
1,0
0,0
1,0
0,0
1,0
0,0
1,0
0,0
0,0
0,0
1,0
0,0
1,0
0,0
1,0
0,0
1,0
0,0
1,0
0,0
1,0
0,0
1,0
0,0
1,0
0,0
1,0
0,0
1,0
0,0
1,0
0,0
1,0
0,0
1,0
0,0
1,0
0,0
1,0
0,0
1,0
0,0
1,0
0,0
1,0
0,0
1,0
0,0
1,0
0,0
1,0
0,0
1,0
0,0
1,0
0,0
1,0
0,0
1,0
0,0
1,0
0,0
1,0
0,0
1,0
0,0
1,0
0,0
1,0
0,0
1,0
0,0
1,0
0,0
1,0
0,0
1,0
0,0
1,0
0,0
1,0
0,0
1,0
0,0
0,0
0,0
1,0
0,0
1,0
0,0
1,0
0,0
1,0
0,0
1,0
0,0
1,0
0,0
1,0
0,0
1,0
0,0
1,0
0,0
1,0
0,0
1,0
0,0
1,0
0,0
1,0
0,0
1,0
0,0
1,0
0,0
1,0
0,0
1,0
0,0
1,0
0,0
1,0
0,0
1,0
0,0
1,0
0,0
1,0
0,0
1,0
0,0
1,0
0,0
1,0
0,0
1,0
0,0
1,0
0,0
1,0
0,0
1,0
0,0
1,0
0,0
1,0
0,0
1,0
0,0
1,0
0,0
1,0
0,0
1,0
0,0
1,0
0,0
0,0
0,0
1,0
0,0
1,0
0,0
1,0
0,0
1,0
0,0
1,0
0,0
1,0
0,0
1,0
0,0
1,0
0,0
1,0
0,0
1,0
0,0
1,0
0,0
1,0
0,0
1,0
0,0
1,0
0,0
1,0
0,0
1,0
0,0
1,0
0,0
1,0
0,0
1,0
0,0
1,0
0,0
1,0
0,0
1,0
0,0
1,0
0,0
1,0
0,0
1,0
0,0
1,0
0,0
1,0
0,0
1,0
0,0
1,0
0,0
1,0
0,0
1,0
0,0
1,0
0,0
1,0
0,0
1,0
0,0
1,0
0,0
1,0
0,0
0,0
0,0
1,0
0,0
1,0
0,0
1,0
0,0
1,0
0,0
1,0
0,0
1,0
0,0
1,0
0,0
1,0
0,0
1,0
0,0
1,0
0,0
1,0
0,0
1,0
0,0
1,0
0,0
1,0
0,0
1,0
0,0
1,0
0,0
1,0
0,0
1,0
0,0
1,0
0,0
1,0
0,0
1,0
0,0
1,0
0,0
1,0
0,0
1,0
0,0
1,0
0,0
1,0
0,0
1,0
0,0
1,0
0,0
1,0
0,0
1,0
0,0
1,0
0,0
1,0
0,0
1,0
0,0
1,0
0,0
1,0
0,0
1,0
0,0
0,0
0,0
1,0
0,0
1,0
0,0
1,0
0,0
1,0
0,0
1,0
0,0
1,0
0,0
1,0
0,0
1,0
0,0
1,0
0,0
1,0
0,0
1,0
0,0
1,0
0,0
1,0
0,0
1,0
0,0
1,0
0,0
1,0
0,0
1,0
0,0
1,0
0,0
1,0
0,0
1,0
0,0
1,0
0,0
1,0
0,0
1,0
0,0
1,0
0,0
1,0
0,0
1,0
0,0
1,0
0,0
1,0
0,0
1,0
0,0
1,0
0,0
1,0
0,0
1,0
0,0
1,0
0,0
1,0
0,0
1,0
0,0
1,0
0,0
0,0
0,0
1,0
0,0
1,0
0,0
1,0
0,0
1,0
0,0
1,0
0,0
1,0
0,0
1,0
0,0
1,0
0,0
1,0
0,0
1,0
0,0
1,0
0,0
1,0
0,0
1,0
0,0
1,0
0,0
1,0
0,0
1,0
0,0
1,0
0,0
1,0
0,0
1,0
0,0
1,0
0,0
1,0
0,0
1,0
0,0
1,0
0,0
1,0
0,0
1,0
0,0
1,0
0,0
1,0
0,0
1,0
0,0
1,0
0,0
1,0
0,0
1,0
0,0
1,0
0,0
1,0
0,0
1,0
0,0
1,0
0,0
1,0
0,0
1,0
0,0
0,0
0,0
1,0
0,0
1,0
0,0
1,0
0,0
1,0
0,0
1,0
0,0
1,0
0,0
1,0
0,0
1,0
0,0
1,0
0,0
1,0
0,0
1,0
0,0
1,0
0,0
1,0
0,0
1,0
0,0
1,0
0,0
1,0
0,0
1,0
0,0
1,0
0,0
1,0
0,0
1,0
0,0
1,0
0,0
1,0
0,0
1,0
0,0
1,0
0,0
1,0
0,0
1,0
0,0
1,0
0,0
1,0
0,0
1,0
0,0
1,0
0,0
1,0
0,0
1,0
0,0
1,0
0,0
1,0
0,0
1,0
0,0
1,0
0,0
0,0
0,0
1,0
0,0
1,0
0,0
1,0
0,0
1,0
0,0
1,0
0,0
1,0
0,0
1,0
0,0
1,0
0,0
1,0
0,0
1,0
0,0
1,0
0,0
1,0
0,0
1,0
0,0
1,0
0,0
1,0
0,0
1,0
0,0
1,0
0,0
1,0
0,0
1,0
0,0
1,0
0,0
1,0
0,0
1,0
0,0
1,0
0,0
1,0
0,0
1,0
0,0
1,0
0,0
1,0
0,0
1,0
0,0
1,0
0,0
1,0
0,0
1,0
0,0
1,0
0,0
1,0
0,0
1,0
0,0
1,0
0,0
1,0
0,0
0,0
0,0
1,0
0,0
1,0
0,0
1,0
0,0
1,0
0,0
1,0
0,0
1,0
0,0
1,0
0,0
1,0
0,0
1,0
0,0
1,0
0,0
1,0
0,0
1,0
0,0
1,0
0,0
1,0
0,0
1,0
0,0
1,0
0,0
1,0
0,0
1,0
0,0
1,0
0,0
1,0
0,0
1,0
0,0
1,0
0,0
1,0
0,0
1,0
0,0
1,0
0,0
1,0
0,0
1,0
0,0
1,0
0,0
1,0
0,0
1,0
0,0
1,0
0,0
1,0
0,0
1,0
0,0
1,0
0,0
1,0
0,0
1,0
0,0
0,0
0,0
1,0
0,0
1,0
0,0
1,0
0,0
1,0
0,0
1,0
0,0
1,0
0,0
1,0
0,0
1,0
0,0
1,0
0,0
1,0
0,0
1,0
0,0
1,0
0,0
1,0
0,0
1,0
0,0
1,0
0,0
1,0
0,0
1,0
0,0
1,0
0,0
1,0
0,0
1,0
0,0
1,0
0,0
1,0
0,0
1,0
0,0
1,0
0,0
1,0
0,0
1,0
0,0
1,0
0,0
1,0
0,0
1,0
0,0
1,0
0,0
1,0
0,0
1,0
0,0
1,0
0,0
1,0
0,0
1,0
0,0
1,0
0,0
0,0
0,0
1,0
0,0
1,0
0,0
1,0
0,0
1,0
0,0
1,0
0,0
1,0
0,0
1,0
0,0
1,0
0,0
1,0
0,0
1,0
0,0
1,0
0,0
1,0
0,0
1,0
0,0
1,0
0,0
1,0
0,0
1,0
0,0
1,0
0,0
1,0
0,0
1,0
0,0
1,0
0,0
1,0
0,0
1,0
0,0
1,0
0,0
1,0
0,0
1,0
0,0
1,0
0,0
1,0
0,0
1,0
0,0
1,0
0,0
1,0
0,0
1,0
0,0
1,0
0,0
1,0
0,0
1,0
0,0
1,0
0,0
1,0
0,0
0,0
0,0
1,0
0,0
1,0
0,0
1,0
0,0
1,0
0,0
1,0
0,0
1,0
0,0
1,0
0,0
1,0
0,0
1,0
0,0
1,0
0,0
1,0
0,0
1,0
0,0
1,0
0,0
1,0
0,0
1,0
0,0
1,0
0,0
1,0
0,0
1,0
0,0
1,0
0,0
1,0
0,0
1,0
0,0
1,0
0,0
1,0
0,0
1,0
0,0
1,0
0,0
1,0
0,0
1,0
0,0
1,0
0,0
1,0
0,0
1,0
0,0
1,0
0,0
1,0
0,0
1,0
0,0
1,0
0,0
1,0
0,0
1,0
0,0
0,0
0,0
1,0
0,0
1,0
0,0
1,0
0,0
1,0
0,0
1,0
0,0
1,0
0,0
1,0
0,0
1,0
0,0
1,0
0,0
1,0
0,0
1,0
0,0
1,0
0,0
1,0
0,0
1,0
0,0
1,0
0,0
1,0
0,0
1,0
0,0
1,0
0,0
1,0
0,0
1,0
0,0
1,0
0,0
1,0
0,0
1,0
0,0
1,0
0,0
1,0
0,0
1,0
0,0
1,0
0,0
1,0
0,0
1,0
0,0
1,0
0,0
1,0
0,0
1,0
0,0
1,0
0,0
1,0
0,0
1,0
0,0
1,0
0,0
0,0
0,0
1,0
0,0
1,0
0,0
1,0
0,0
1,0
0,0
1,0
0,0
1,0
0,0
1,0
0,0
1,0
0,0
1,0
0,0
1,0
0,0
1,0
0,0
1,0
0,0
1,0
0,0
1,0
0,0
1,0
0,0
1,0
0,0
1,0
0,0
1,0
0,0
1,0
0,0
1,0
0,0
1,0
0,0
1,0
0,0
1,0
0,0
1,0
0,0
1,0
0,0
1,0
0,0
1,0
0,0
1,0
0,0
1,0
0,0
1,0
0,0
1,0
0,0
1,0
0,0
1,0
0,0
1,0
0,0
1,0
0,0
1,0
0,0
0,0
0,0
1,0
0,0
1,0
0,0
1,0
0,0
1,0
0,0
1,0
0,0
1,0
0,0
1,0
0,0
1,0
0,0
1,0
0,0
1,0
0,0
1,0
0,0
1,0
0,0
1,0
0,0
1,0
0,0
1,0
0,0
1,0
0,0
1,0
0,0
1,0
0,0
1,0
0,0
1,0
0,0
1,0
0,0
1,0
0,0
1,0
0,0
1,0
0,0
1,0
0,0
1,0
0,0
1,0
0,0
1,0
0,0
1,0
0,0
1,0
0,0
1,0
0,0
1,0
0,0
1,0
0,0
1,0
0,0
1,0
0,0
1,0
0,0
1,0
0,0
0,0
0,0
1,0
0,0
1,0
0,0
1,0
0,0
1,0
0,0
1,0
0,0
1,0
0,0
1,0
0,0
1,0
0,0
1,0
0,0
1,0
0,0
1,0
0,0
1,0
0,0
1,0
0,0
1,0
0,0
1,0
0,0
1,0
0,0
1,0
0,0
1,0
0,0
1,0
0,0
1,0
0,0
1,0
0,0
1,0
0,0
1,0
0,0
1,0
0,0
1,0
0,0
1,0
0,0
1,0
0,0
1,0
0,0
1,0
0,0
1,0
0,0
1,0
0,0
1,0
0,0
1,0
0,0
1,0
0,0
1,0
0,0
0,0
0,0
1,1
0,1
0,0
1,1
0,0
1,1
0,1
0,0
1,1
0,1
0,0
1,1
0,0
1,1
0,0
1,1
0,1
0,0
1,1
0,1
0,0
1,1
0,0
1,1
0,1
0,0
1,1
0,1
0,0
1,1
0,1
0,0
1,1
0,1
0,0
1,1
0,0
1,1
0,0
1,1
0,1
0,0
1,1
0,0
1,1
0,1
0,0
1,1
0,1
0,0
1,1
0,1
0,0
1,1
0,1
0,0
1,1
0,0
1,1
0,1
0,0
1,1
0,1
0,0
1,0
0,0
1,0
0,0
1,0
0,0
1,0
0,0
1,0
0,0
1,1
0,0
1,0
0,0
1,0
0,0
0,0
0,0
1,0
0,0
1,0
0,0
1,1
0,0
1,1
0,0
1,1
0,0
1,1
0,0
1,1
0,0
1,1
0,0
1,1
0,1
0,0
1,1
0,1
0,0
1,1
0,0
1,1
0,0
1,1
0,0
1,1
0,1
0,0
1,1
0,0
1,1
0,1
0,0
1,1
0,1
0,0
1,1
0,0
1,1
0,0
1,1
0,1
0,0
1,1
0,1
0,0
1,1
0,1
0,0
1,1
0,1
0,0
1,1
0,0
1,1
0,0
1,1
0,0
1,1
0,1
0,0
1,1
0,0
1,1
0,0
1,1
0,0
1,1
0,1
0,0
0,0
0,0
1,1
0,1
0,0
1,1
0,0
1,1
0,1
0,0
1,1
0,0
1,1
0,0
1,1
0,0
1,1
0,1
0,0
1,1
0,1
0,0
1,1
0,0
1,1
0,0
1,1
0,0
1,1
0,0
1,1
0,1
0,0
1,1
0,1
0,0
1,0
1,1
0,0
1,1
0,1
0,0
1,1
0,0
1,1
0,0
1,1
0,0
1,1
0,0
1,1
0,0
1,1
0,1
0,0
1,1
0,1
0,0
1,1
0,1
0,0
1,1
0,0
1,1
0,1
0,0
1,1
0,0
1,1
0,1
0,0
1,1
0,0
1,1
0,0
1,1
0,0
1,1
0,0
1,1
0,1
0,0
1,1
0,0
1,1
0,0
1,1
0,1
0,0
0,0
0,0
1,1
0,0
1,1
0,0
1,1
0,0
1,1
0,1
0,0
1,1
0,1
0,0
1,1
0,0
1,1
0,0
1,1
0,0
1,1
0,0
1,1
0,1
0,0
1,1
0,1
0,0
1,1
0,0
1,1
0,0
1,1
0,0
1,1
0,0
1,1
0,1
0,0
1,1
0,1
0,0
1,1
0,0
1,1
0,0
1,1
0,0
1,0
0,0
1,0
0,0
1,0
0,0
1,1
0,0
1,1
0,0
1,1
0,0
1,1
0,1
0,0
1,0
0,0
1,1
0,1
0,0
1,1
0,1
0,0
1,1
0,0
1,1
0,1
0,0
1,1
0,0
1,1
0,0
1,1
0,0
1,1
0,0
0,0
0,0
1,1
0,1
0,0
1,1
0,1
0,0
1,1
0,1
0,0
1,0
1,1
0,0
1,1
0,1
0,0
1,1
0,1
0,0
1,1
0,1
0,0
1,1
0,0
1,1
0,0
1,1
0,1
0,0
1,1
0,1
0,0
1,1
0,0
1,1
0,1
0,0
1,1
0,1
0,0
1,1
0,0
1,1
0,0
1,1
0,0
1,1
0,0
1,1
0,0
1,1
0,1
0,0
1,1
0,0
1,1
0,1
0,0
1,1
0,0
1,1
0,0
1,1
0,0
1,1
0,1
0,0
1,1
0,0
1,1
0,1
0,0
1,1
0,1
0,0
1,1
0,0
1,1
0,0
1,1
0,1
0,0
1,1
0,0
1,1
0,0
1,1
0,0
1,1
0,1
0,0
0,0
0,0
1,1
0,1
0,0
1,0
1,1
0,0
1,1
0,0
1,1
0,1
0,0
1,1
0,0
1,1
0,0
1,1
0,1
0,0
1,1
0,1
0,0
1,1
0,1
0,0
1,1
0,0
1,1
0,1
0,0
1,1
0,0
1,1
0,1
0,0
1,1
0,0
1,1
0,1
0,0
1,1
0,0
1,1
0,1
0,0
1,1
0,0
1,1
0,0
1,1
0,1
0,0
1,1
0,0
1,1
0,0
1,1
0,0
1,1
0,1
0,0
1,1
0,0
1,1
0,1
0,0
1,1
0,0
1,1
0,1
0,0
1,1
0,0
1,1
0,1
0,0
1,0
1,1
0,0
1,1
0,1
0,0
1,1
0,0
1,1
0,1
0,0
1,1
0,0
1,1
0,1
0,0
0,0
0,0
1,1
0,1
0,0
1,0
1,1
0,0
1,1
0,0
1,1
0,0
1,1
0,0
1,1
0,1
0,0
1,1
0,0
1,1
0,0
1,1
0,1
0,0
1,1
0,1
0,0
1,1
0,0
1,1
0,1
0,0
1,1
0,0
1,1
0,0
1,1
0,0
1,1
0,0
1,1
0,1
0,0
1,1
0,1
0,0
1,1
0,0
1,1
0,1
0,0
1,1
0,0
1,1
0,0
1,1
0,0
1,1
0,0
1,1
0,1
0,0
1,1
0,0
1,1
0,1
0,0
1,1
0,1
0,0
1,1
0,0
1,1
0,1
0,0
1,1
0,0
1,1
0,1
0,0
1,1
0,0
1,1
0,1
0,0
1,1
0,1
0,0
1,1
0,1
0,0
1,1
0,0
0,0
0,0
1,1
0,0
1,1
0,1
0,0
1,1
0,0
1,1
0,0
1,1
0,0
1,1
0,0
1,0
1,1
0,0
1,1
0,1
0,0
1,1
0,0
1,1
0,0
1,1
0,0
1,1
0,1
0,0
1,1
0,0
1,1
0,0
1,1
0,1
0,0
1,1
0,0
1,1
0,1
0,0
1,1
0,1
0,0
1,1
0,0
1,1
0,1
0,0
1,1
0,1
0,0
1,1
0,0
1,1
0,0
1,1
0,0
1,1
0,1
0,0
1,1
0,0
1,1
0,1
0,0
1,1
0,1
0,0
1,1
0,1
0,0
1,1
0,1
0,0
1,1
0,1
0,0
1,1
0,1
0,0
1,1
0,1
0,0
1,1
0,0
1,1
0,0
1,1
0,1
0,0
0,0
0,0
1,1
0,0
1,0
1,1
0,0
1,1
0,1
0,0
1,1
0,1
0,0
1,1
0,0
1,1
0,1
0,0
1,1
0,1
0,0
1,1
0,1
0,0
1,0
1,1
0,0
1,1
0,0
1,1
0,0
1,1
0,0
1,1
0,1
0,0
1,1
0,1
0,0
1,1
0,0
1,1
0,1
0,0
1,1
0,1
0,0
1,1
0,1
0,0
1,1
0,1
0,0
1,1
0,0
1,1
0,1
0,0
1,1
0,0
1,1
0,0
1,1
0,0
1,1
0,0
1,1
0,1
0,0
1,1
0,0
1,1
0,1
0,0
1,1
0,1
0,0
1,1
0,0
1,1
0,0
1,1
0,0
1,1
0,1
0,0
1,1
0,1
0,0
1,1
0,0
1,1
0,1
0,0
0,0
0,0
1,1
0,0
1,1
0,0
1,1
0,0
1,1
0,1
0,0
1,1
0,0
1,1
0,0
1,1
0,0
1,1
0,0
1,1
0,1
0,0
1,1
0,1
0,0
1,1
0,0
1,1
0,1
0,0
1,1
0,0
1,1
0,1
0,0
1,1
0,0
1,1
0,1
0,0
1,1
0,1
0,0
1,1
0,0
1,1
0,0
1,1
0,0
1,1
0,0
1,1
0,0
1,1
0,1
0,0
1,1
0,0
1,1
0,0
1,1
0,0
1,1
0,1
0,0
1,1
0,0
1,1
0,0
1,1
0,1
0,0
1,1
0,0
1,1
0,0
1,1
0,1
0,0
1,1
0,1
0,0
1,1
0,1
0,0
1,1
0,1
0,0
0,0
0,0
1,1
0,0
1,1
0,1
0,0
1,1
0,1
0,0
1,1
0,0
1,1
0,1
0,0
1,1
0,0
1,1
0,0
1,1
0,0
1,1
0,1
0,0
1,1
0,1
0,0
1,1
0,0
1,1
0,1
0,0
1,1
0,0
1,1
0,0
1,1
0,1
0,0
1,1
0,0
1,1
0,1
0,0
1,0
1,1
0,0
1,1
0,1
0,0
1,1
0,1
0,0
1,1
0,1
0,0
1,1
0,0
1,1
0,0
1,1
0,1
0,0
1,1
0,1
0,0
1,1
0,1
0,0
1,1
0,1
0,0
1,1
0,1
0,0
1,1
0,1
0,0
1,1
0,0
1,1
0,0
1,1
0,0
1,1
0,1
0,0
1,1
0,0
1,1
0,1
0,0
1,1
0,1
0,0
0,0
0,0
1,1
0,0
1,1
0,1
0,0
1,1
0,1
0,0
1,1
0,0
1,1
0,1
0,0
1,1
0,0
1,1
0,1
0,0
1,1
0,1
0,0
1,1
0,1
0,0
1,1
0,1
0,0
1,1
0,1
0,0
1,1
0,0
1,1
0,0
1,1
0,1
0,0
1,1
0,0
1,1
0,1
0,0
1,1
0,0
1,1
0,0
1,1
0,0
1,1
0,1
0,0
1,1
0,0
1,1
0,1
0,0
1,1
0,0
1,1
0,1
0,0
1,1
0,1
0,0
1,1
0,1
0,0
1,1
0,1
0,0
1,1
0,0
1,1
0,1
0,0
1,1
0,0
1,1
0,1
0,0
1,1
0,0
1,1
0,1
0,0
1,1
0,0
1,1
0,1
0,0
1,1
0,0
0,0
0,0
1,1
0,1
0,0
1,1
0,1
0,0
1,1
0,1
0,0
1,1
0,1
0,0
1,1
0,0
1,1
0,0
1,1
0,0
1,1
0,1
0,0
1,1
0,1
0,0
1,1
0,0
1,1
0,0
1,1
0,0
1,1
0,0
1,1
0,0
1,1
0,0
1,1
0,0
1,1
0,0
1,1
0,0
1,1
0,0
1,1
0,0
1,1
0,0
1,1
0,0
1,1
0,0
1,1
0,0
1,1
0,1
0,0
1,1
0,0
1,1
0,1
0,0
1,1
0,1
0,0
1,1
0,1
0,0
1,1
0,0
1,1
0,0
1,1
0,0
1,1
0,1
0,0
1,1
0,0
1,1
0,0
1,1
0,1
0,0
0,0
0,0
1,1
0,0
1,1
0,1
0,0
1,1
0,0
1,1
0,0
1,1
0,1
0,0
1,1
0,0
1,1
0,1
0,0
1,1
0,1
0,0
1,1
0,1
0,0
1,1
0,0
1,1
0,0
1,1
0,0
1,1
0,0
1,1
0,0
1,1
0,0
1,1
0,0
1,1
0,0
1,1
0,0
1,1
0,0
1,1
0,0
1,1
0,1
0,0
1,1
0,1
0,0
1,1
0,0
1,1
0,0
1,1
0,0
1,0
1,1
0,0
1,1
0,0
1,1
0,1
0,0
1,1
0,1
0,0
1,1
0,0
1,1
0,1
0,0
1,1
0,0
1,1
0,0
1,1
0,1
0,0
1,1
0,1
0,0
1,1
0,0
0,0
0,0
1,1
0,0
1,1
0,0
1,1
0,0
1,1
0,0
1,1
0,0
1,1
0,0
1,1
0,0
1,1
0,0
1,1
0,1
0,0
1,1
0,0
1,1
0,0
1,1
0,0
1,1
0,0
1,1
0,1
0,0
1,1
0,1
0,0
1,1
0,0
1,1
0,0
1,1
0,1
0,0
1,1
0,0
1,1
0,1
0,0
1,1
0,1
0,0
1,1
0,0
1,1
0,1
0,0
1,1
0,0
1,1
0,0
1,1
0,0
1,1
0,1
0,0
1,1
0,1
0,0
1,1
0,1
0,0
1,1
0,1
0,0
1,1
0,0
1,1
0,1
0,0
1,1
0,0
1,1
0,0
1,1
0,0
1,1
0,0
0,0
0,0
1,1
0,0
1,0
1,1
0,0
1,1
0,1
0,0
1,1
0,0
1,1
0,1
0,0
1,1
0,1
0,0
1,1
0,1
0,0
1,1
0,1
0,0
1,1
0,0
1,1
0,0
1,1
0,1
0,0
1,1
0,0
1,1
0,0
1,1
0,0
1,1
0,0
1,1
0,1
0,0
1,1
0,0
1,0
1,1
0,0
1,1
0,0
1,1
0,0
1,1
0,0
1,1
0,0
1,1
0,1
0,0
1,1
0,0
1,1
0,0
1,1
0,1
0,0
1,1
0,1
0,0
1,1
0,0
1,1
0,0
1,1
0,0
1,1
0,1
0,0
1,1
0,0
1,1
0,0
1,1
0,0
1,1
0,1
0,0
1,1
0,0
0,0
0,0
1,1
0,1
0,0
1,1
0,0
1,1
0,1
0,0
1,1
0,1
0,0
1,1
0,0
1,1
0,1
0,0
1,1
0,0
1,1
0,0
1,1
0,0
1,1
0,0
1,1
0,0
1,1
0,1
0,0
1,1
0,0
1,1
0,0
1,1
0,0
1,1
0,1
0,0
1,1
0,1
0,0
1,1
0,0
1,1
0,1
0,0
1,1
0,1
0,0
1,1
0,1
0,0
1,1
0,1
0,0
1,1
0,0
1,1
0,0
1,1
0,0
1,1
0,0
1,1
0,1
0,0
1,1
0,0
1,1
0,0
1,1
0,1
0,0
1,1
0,1
0,0
1,1
0,1
0,0
1,1
0,0
1,1
0,0
1,1
0,0
1,1
0,0
1,1
0,1
0,0
0,0
0,0
1,1
0,0
1,1
0,0
1,1
0,0
1,1
0,1
0,0
1,1
0,0
1,1
0,1
0,0
1,1
0,0
1,1
0,0
1,1
0,0
1,1
0,0
1,1
0,1
0,0
1,1
0,1
0,0
1,1
0,0
1,1
0,0
1,1
0,0
1,1
0,0
1,1
0,0
1,1
0,0
1,1
0,0
1,1
0,1
0,0
1,1
0,1
0,0
1,1
0,0
1,1
0,0
1,1
0,0
1,1
0,0
1,1
0,1
0,0
1,1
0,1
0,0
1,1
0,0
1,1
0,1
0,0
1,1
0,1
0,0
1,1
0,0
1,1
0,0
1,1
0,1
0,0
1,1
0,0
1,1
0,1
0,0
1,1
0,0
0,0
0,0
1,1
0,0
1,1
0,0
1,1
0,1
0,0
1,1
0,0
1,1
0,0
1,1
0,0
1,1
0,1
0,0
1,1
0,1
0,0
1,1
0,0
1,1
0,1
0,0
1,1
0,1
0,0
1,1
0,1
0,0
1,1
0,0
1,1
0,0
1,1
0,1
0,0
1,1
0,0
1,1
0,1
0,0
1,1
0,0
1,1
0,1
0,0
1,1
0,0
1,1
0,0
1,1
0,0
1,1
0,0
1,1
0,1
0,0
1,1
0,1
0,0
1,1
0,0
1,1
0,0
1,1
0,0
1,1
0,1
0,0
1,1
0,0
1,0
1,1
0,0
1,1
0,0
1,1
0,1
0,0
1,0
1,1
0,0
1,1
0,0
1,1
0,1
0,0
0,0
0,0
1,1
0,0
1,1
0,1
0,0
1,1
0,1
0,0
1,1
0,0
1,1
0,0
1,1
0,1
0,0
1,1
0,1
0,0
1,1
0,0
1,1
0,0
1,1
0,0
1,1
0,0
1,1
0,0
1,1
0,1
0,0
1,1
0,0
1,1
0,0
1,1
0,1
0,0
1,1
0,0
1,1
0,0
1,1
0,1
0,0
1,1
0,0
1,1
0,1
0,0
1,0
1,1
0,0
1,1
0,0
1,1
0,0
1,1
0,0
1,1
0,0
1,1
0,0
1,1
0,0
1,1
0,0
1,1
0,1
0,0
1,1
0,0
1,1
0,1
0,0
1,1
0,1
0,0
1,1
0,0
1,1
0,1
0,0
1,1
0,0
0,0
0,0
1,1
0,1
0,0
1,1
0,0
1,1
0,0
1,1
0,1
0,0
1,1
0,1
0,0
1,1
0,1
0,0
1,1
0,0
1,1
0,1
0,0
1,0
1,1
0,0
1,1
0,1
0,0
1,1
0,1
0,0
1,1
0,0
1,1
0,1
0,0
1,1
0,1
0,0
1,1
0,0
1,1
0,0
1,1
0,0
1,1
0,1
0,0
1,1
0,1
0,0
1,1
0,1
0,0
1,1
0,0
1,1
0,0
1,1
0,0
1,1
0,0
1,1
0,0
1,1
0,0
1,1
0,1
0,0
1,1
0,0
1,1
0,1
0,0
1,1
0,0
1,1
0,0
1,1
0,1
0,0
1,1
0,1
0,0
1,1
0,0
1,1
0,0
1,1
0,0
0,0
0,0
1,1
0,0
1,1
0,0
1,1
0,1
0,0
1,1
0,0
1,1
0,0
1,1
0,0
1,1
0,0
1,1
0,0
1,1
0,0
1,1
0,1
0,0
1,1
0,1
0,0
1,1
0,1
0,0
1,1
0,0
1,1
0,1
0,0
1,1
0,1
0,0
1,1
0,0
1,1
0,0
1,1
0,0
1,1
0,0
1,1
0,0
1,1
0,1
0,0
1,1
0,0
1,1
0,0
1,1
0,0
1,1
0,1
0,0
1,1
0,0
1,1
0,1
0,0
1,1
0,1
0,0
1,1
0,1
0,0
1,1
0,0
1,1
0,1
0,0
1,1
0,0
1,1
0,1
0,0
1,1
0,0
1,1
0,0
1,1
0,0
0,0
0,0
1,1
0,0
1,1
0,0
1,1
0,1
0,0
1,1
0,0
1,1
0,0
1,1
0,1
0,0
1,1
0,0
1,1
0,1
0,0
1,1
0,0
1,1
0,0
1,1
0,1
0,0
1,1
0,1
0,0
1,1
0,1
0,0
1,1
0,0
1,1
0,0
1,1
0,0
1,1
0,0
1,1
0,1
0,0
1,1
0,1
0,0
1,1
0,1
0,0
1,1
0,1
0,0
1,1
0,0
1,1
0,1
0,0
1,1
0,0
1,1
0,1
0,0
1,1
0,0
1,1
0,0
1,1
0,1
0,0
1,1
0,0
1,1
0,0
1,1
0,0
1,1
0,0
1,1
0,1
0,0
1,1
0,0
1,1
0,0
1,1
0,0
0,0
0,0
1,1
0,0
1,1
0,0
1,1
0,0
1,1
0,1
0,0
1,1
0,0
1,1
0,0
1,1
0,1
0,0
1,1
0,1
0,0
1,1
0,0
1,1
0,0
1,1
0,1
0,0
1,1
0,0
1,1
0,0
1,1
0,1
0,0
1,1
0,0
1,1
0,0
1,1
0,0
1,1
0,0
1,1
0,1
0,0
1,1
0,0
1,1
0,0
1,1
0,0
1,1
0,0
1,1
0,1
0,0
1,1
0,1
0,0
1,1
0,1
0,0
1,1
0,1
0,0
1,1
0,1
0,0
1,1
0,1
0,0
1,1
0,0
1,1
0,1
0,0
1,1
0,1
0,0
1,1
0,0
1,1
0,1
0,0
1,1
0,0
1,1
0,0
0,0
0,0
1,1
0,0
1,1
0,1
0,0
1,1
0,1
0,0
1,1
0,0
1,1
0,0
1,1
0,0
1,1
0,1
0,0
1,1
0,0
1,1
0,1
0,0
1,1
0,0
1,1
0,0
1,1
0,1
0,0
1,1
0,0
1,1
0,0
1,1
0,0
1,1
0,0
1,1
0,0
1,1
0,1
0,0
1,1
0,1
0,0
1,1
0,1
0,0
1,1
0,1
0,0
1,1
0,0
1,1
0,1
0,0
1,1
0,0
1,1
0,0
1,1
0,1
0,0
1,1
0,1
0,0
1,0
1,1
0,0
1,1
0,1
0,0
1,1
0,0
1,1
0,1
0,0
1,1
0,1
0,0
1,1
0,0
1,1
0,0
1,1
0,0
1,1
0,1
0,0
0,0
0,0
1,1
0,1
0,0
1,1
0,0
1,1
0,0
1,1
0,0
1,1
0,1
0,0
1,1
0,0
1,1
0,1
0,0
1,1
0,1
0,0
1,1
0,0
1,1
0,1
0,0
1,1
0,0
1,1
0,1
0,0
1,1
0,0
1,1
0,0
1,1
0,0
1,1
0,1
0,0
1,1
0,1
0,0
1,1
0,0
1,1
0,1
0,0
1,1
0,0
1,1
0,1
0,0
1,1
0,1
0,0
1,1
0,0
1,1
0,1
0,0
1,1
0,1
0,0
1,1
0,1
0,0
1,0
1,1
0,0
1,1
0,1
0,0
1,1
0,0
1,1
0,1
0,0
1,1
0,0
1,1
0,1
0,0
1,1
0,1
0,0
1,1
0,0
1,1
0,0
1,1
0,1
0,0
0,0
0,0
1,1
0,1
0,0
1,1
0,0
1,1
0,0
1,1
0,0
1,1
0,1
0,0
1,1
0,1
0,0
1,1
0,0
1,1
0,0
1,1
0,0
1,1
0,0
1,1
0,0
1,1
0,1
0,0
1,1
0,1
0,0
1,1
0,0
1,1
0,1
0,0
1,1
0,0
1,1
0,1
0,0
1,1
0,0
1,1
0,0
1,1
0,0
1,1
0,0
1,1
0,1
0,0
1,1
0,1
0,0
1,1
0,0
1,1
0,0
1,1
0,1
0,0
1,1
0,0
1,1
0,1
0,0
1,1
0,1
0,0
1,1
0,0
1,1
0,0
1,1
0,1
0,0
1,1
0,1
0,0
1,1
0,0
1,1
0,0
1,1
0,1
0,0
0,0
0,0
1,1
0,1
0,0
1,1
0,0
1,1
0,0
1,1
0,1
0,0
1,1
0,1
0,0
1,1
0,0
1,1
0,1
0,0
1,1
0,0
1,1
0,1
0,0
1,1
0,0
1,1
0,1
0,0
1,1
0,0
1,1
0,0
1,1
0,1
0,0
1,1
0,0
1,1
0,1
0,0
1,1
0,0
1,1
0,1
0,0
1,1
0,0
1,1
0,1
0,0
1,1
0,0
1,1
0,1
0,0
1,1
0,1
0,0
1,1
0,1
0,0
1,1
0,1
0,0
1,1
0,0
1,1
0,0
1,1
0,0
1,1
0,0
1,1
0,0
1,1
0,0
1,1
0,0
1,1
0,1
0,0
1,1
0,0
1,1
0,0
1,1
0,1
0,0
0,0
0,0
1,1
0,0
1,1
0,0
1,1
0,1
0,0
1,1
0,0
1,1
0,1
0,0
1,1
0,0
1,1
0,0
1,1
0,1
0,0
1,1
0,0
1,1
0,1
0,0
1,1
0,0
1,1
0,1
0,0
1,1
0,1
0,0
1,1
0,0
1,1
0,0
1,1
0,1
0,0
1,1
0,0
1,1
0,0
1,1
0,1
0,0
1,1
0,1
0,0
1,1
0,0
1,1
0,1
0,0
1,1
0,0
1,1
0,0
1,1
0,1
0,0
1,1
0,1
0,0
1,1
0,0
1,1
0,1
0,0
1,1
0,0
1,1
0,0
1,1
0,0
1,1
0,0
1,1
0,0
1,1
0,1
0,0
1,1
0,0
1,1
0,0
0,0
0,0
1,1
0,0
1,1
0,1
0,0
1,1
0,0
1,1
0,0
1,1
0,0
1,1
0,1
0,0
